(1608242880.632955) can0 1830E8F4#0800000000000000
(1608242880.636934) can0 1838F4E8#0000000000FFFFFF
(1608242880.692912) can0 181080F5#FFFF0DA93E80FFFF
(1608242880.694947) can0 183280F5#0100000000000000
(1608242880.696942) can0 183280F5#0200000000000000
(1608242880.698944) can0 184080F5#0100000000000000
(1608242880.712920) can0 181081F5#FFFF0DA93E80FFFF
(1608242880.713456) can0 1811F580#01000D970DD70DE9
(1608242880.714471) can0 1811F580#04000DCF0DDD0DAF
(1608242880.715025) can0 183281F5#0100000000000000
(1608242880.715605) can0 1811F580#07000DF10DE00DF0
(1608242880.716478) can0 1811F580#0A000DB50DA70DB4
(1608242880.717019) can0 183281F5#0200000000000000
(1608242880.717577) can0 1811F580#0D000DB60DCB0DB9
(1608242880.718494) can0 1811F580#10000DB00DC20DB6
(1608242880.719032) can0 184081F5#0100000000000000
(1608242880.719603) can0 1811F580#13000DA20DE90D4C
(1608242880.720492) can0 1811F580#16000D670D620D77
(1608242880.721485) can0 1811F580#19000CE50CD90CC1
(1608242880.722486) can0 1811F580#1C000CE10DD50DA4
(1608242880.723492) can0 1811F580#1F000DD70DB50DA0
(1608242880.724476) can0 1811F580#22000DA40DEC0DC9
(1608242880.725492) can0 1811F580#25000DB60DAB0DED
(1608242880.726482) can0 1811F580#28000DC60DBB0DB8
(1608242880.727500) can0 1811F580#2B000DCE0DAE0DBA
(1608242880.728477) can0 1811F580#2E000DC20DA30DC7
(1608242880.729517) can0 1812F580#0100414140404041
(1608242880.730489) can0 1812F580#0700424141414140
(1608242880.731174) can0 1813F580#
(1608242880.732544) can0 1815F580#0001000000000000
(1608242880.733453) can0 1816F580#00118111000000
(1608242880.734462) can0 1816F580#00129111000000
(1608242880.735441) can0 1816F580#0013A111000000
(1608242880.736194) can0 1814F580#
(1608242880.736922) can0 183BF4E8#0401000000000000
(1608242880.737282) can0 1833F580#
(1608242880.738939) can0 183DF4E8#0111811100000000
(1608242880.741003) can0 183DF4E8#0112911100000000
(1608242880.742972) can0 183DF4E8#0113A11100000000
(1608242880.744935) can0 181082F5#FFFF0DA93E80FFFF
(1608242880.746960) can0 183282F5#0100000000000000
(1608242880.748928) can0 183282F5#0200000000000000
(1608242880.750931) can0 184082F5#0100000000000000
(1608242880.752194) can0 1833F580#
(1608242880.757351) can0 1841F580#00000000
(1608242880.772916) can0 181083F5#FFFF0DA93E80FFFF
(1608242880.774952) can0 183283F5#0100000000000000
(1608242880.776953) can0 183283F5#0200000000000000
(1608242880.778942) can0 184083F5#0100000000000000
(1608242880.785218) can0 1811F583#01000DC30DC90DB4
(1608242880.786272) can0 1811F583#04000DB20CD40CE6
(1608242880.787204) can0 1811F583#07000CD80CC70DCD
(1608242880.788230) can0 1811F583#0A000DA50DBE0DDC
(1608242880.789221) can0 1811F583#0D000DC70D940DDC
(1608242880.790232) can0 1811F583#10000DC00DB20DB3
(1608242880.791225) can0 1811F583#13000DD60DCE0DA7
(1608242880.792283) can0 1811F583#16000DDC0DC30DC9
(1608242880.793240) can0 1811F583#19000DD40DC20DB3
(1608242880.794281) can0 1811F583#1C000DBB0DE20DB0
(1608242880.795284) can0 1811F583#1F000DC40DA00DB5
(1608242880.796234) can0 1811F583#22000DAF0DAD0DEB
(1608242880.797231) can0 1811F583#25000DAC0DB90DC1
(1608242880.798250) can0 1811F583#28000DE20DC80DD7
(1608242880.799311) can0 1811F583#2B000DB70D9E0DC7
(1608242880.800190) can0 1811F583#2E000D970DD90DB1
(1608242880.801227) can0 1812F583#0100414341404041
(1608242880.802249) can0 1812F583#070040404040403F
(1608242880.802898) can0 1813F583#
(1608242880.804318) can0 1815F583#0001000000000000
(1608242880.805186) can0 1816F583#00118111000000
(1608242880.806190) can0 1816F583#00129111000000
(1608242880.807189) can0 1816F583#0013A111000000
(1608242880.807908) can0 1814F583#
(1608242880.808950) can0 1833F583#
(1608242880.823924) can0 1833F583#
(1608242880.825909) can0 1811F582#01000DC90DA50DC5
(1608242880.826878) can0 1811F582#04000DC90DDC0DC4
(1608242880.827875) can0 1811F582#07000DB30DBB0DB2
(1608242880.828987) can0 1811F582#0A000DBC0DC50DB7
(1608242880.829885) can0 1811F582#0D000DB40DDC0DB9
(1608242880.830248) can0 1841F583#00000000
(1608242880.830886) can0 1811F582#10000DC20D7C0D7C
(1608242880.831919) can0 1811F582#13000DBC0DA10DD1
(1608242880.832920) can0 1811F582#16000DC80DB50DAE
(1608242880.833429) can0 183BF4E8#1001000000000000
(1608242880.834050) can0 1811F582#19000DA20DB80DD1
(1608242880.834709) can0 1811F582#1C000DB7
(1608242880.835274) can0 183DF4E8#0411811100000000
(1608242880.835863) can0 1812F582#0100414140414341
(1608242880.836670) can0 1812F582#070040
(1608242880.837237) can0 183DF4E8#0412911100000000
(1608242880.837575) can0 1813F582#
(1608242880.838926) can0 1815F582#0001000000000000
(1608242880.839438) can0 183DF4E8#0413A11100000000
(1608242880.840003) can0 1816F582#00118111000000
(1608242880.840849) can0 1816F582#0012910D000000
(1608242880.841873) can0 1816F582#00138000000000
(1608242880.842575) can0 1814F582#
(1608242880.844928) can0 183BF4E8#0C01000000000000
(1608242880.846925) can0 183DF4E8#0311811100000000
(1608242880.848925) can0 183DF4E8#0312910D00000000
(1608242880.850924) can0 183DF4E8#0313800000000000
(1608242880.859265) can0 1811F581#01000DBD0DCF0DC7
(1608242880.860281) can0 1811F581#04000DB60DAF0DAB
(1608242880.861290) can0 1811F581#07000DCA0DDC0CCE
(1608242880.862275) can0 1811F581#0A000CEC0CBA0CC3
(1608242880.863282) can0 1811F581#0D000D9B0D940DC5
(1608242880.864318) can0 1811F581#10000DFC0D9B0DA8
(1608242880.865277) can0 1811F581#13000DC70DD50DBE
(1608242880.866261) can0 1811F581#16000DC50DA70DCC
(1608242880.867277) can0 1811F581#19000DA00DBE0DB1
(1608242880.868131) can0 1811F581#1C000DC9
(1608242880.869318) can0 1812F581#0100414143404141
(1608242880.870103) can0 1812F581#070041
(1608242880.870977) can0 1813F581#
(1608242880.872302) can0 1815F581#0001000000000000
(1608242880.873235) can0 1816F581#00118111000000
(1608242880.874266) can0 1816F581#0012910D000000
(1608242880.875243) can0 1816F581#00138000000000
(1608242880.875964) can0 1814F581#
(1608242880.876927) can0 183BF4E8#0801000000000000
(1608242880.878923) can0 183DF4E8#0211811100000000
(1608242880.880987) can0 183DF4E8#0212910D00000000
(1608242880.882926) can0 183DF4E8#0213800000000000
(1608242880.901604) can0 1833F582#
(1608242880.906615) can0 1833F582#
(1608242880.912753) can0 1841F582#00000000
(1608242880.934001) can0 1833F581#
(1608242880.939993) can0 1833F581#
(1608242880.971145) can0 1841F581#00000000
(1608242880.998873) can0 183ECCE8#41375D333743433F
(1608242881.000916) can0 183FCCE8#0535002214C43E80
(1608242881.002922) can0 1840CCE8#3E80F9383E803E80
(1608242881.090092) can0 1830E8F4#0800000000000000
(1608242881.108913) can0 1838F4E8#0000000000FFFFFF
(1608242881.139678) can0 1830E8F4#0800000000000000
(1608242881.144938) can0 1838F4E8#0000000000FFFFFF
(1608242881.192874) can0 181080F5#FFFF0DA93E80FFFF
(1608242881.194919) can0 183280F5#0100000000000000
(1608242881.195473) can0 1811F580#01000D970DD70DE8
(1608242881.196498) can0 1811F580#04000DCF0DDD0DAF
(1608242881.197036) can0 183280F5#0200000000000000
(1608242881.197609) can0 1811F580#07000DF10DE00DF0
(1608242881.198496) can0 1811F580#0A000DB50DA70DB4
(1608242881.199048) can0 184080F5#0100000000000000
(1608242881.199619) can0 1811F580#0D000DB60DCB0DB9
(1608242881.200588) can0 1811F580#10000DB00DC20DB6
(1608242881.201488) can0 1811F580#13000DA20DE90D4C
(1608242881.202550) can0 1811F580#16000D670D620D77
(1608242881.203505) can0 1811F580#19000CE50CD90CC1
(1608242881.204497) can0 1811F580#1C000CE10DD50DA4
(1608242881.205498) can0 1811F580#1F000DD70DB50DA0
(1608242881.206506) can0 1811F580#22000DA40DEC0DC9
(1608242881.207904) can0 1811F580#25000DB60DAB0DEE
(1608242881.208460) can0 1811F580#28000DC60DBB0DB8
(1608242881.209539) can0 1811F580#2B000DCE0DAE0DBA
(1608242881.210512) can0 1811F580#2E000DC20DA30DC7
(1608242881.211515) can0 1812F580#01004141403F4041
(1608242881.212524) can0 1812F580#0700424141414140
(1608242881.213035) can0 181081F5#FFFF0DA93E80FFFF
(1608242881.213372) can0 1813F580#
(1608242881.214540) can0 1815F580#0001000000000000
(1608242881.215078) can0 183281F5#0100000000000000
(1608242881.215645) can0 1811F581#01000DBD0DCF0DC6
(1608242881.216163) can0 1816F580#00118111000000
(1608242881.216717) can0 1811F581#04000DB50DAF0DAB
(1608242881.217281) can0 1811F581#07000DCA0DDB0CCE
(1608242881.217808) can0 1816F580#0013A111000000
(1608242881.218360) can0 1811F581#0A000CEC0CBA0CC3
(1608242881.218729) can0 1814F580#
(1608242881.219195) can0 1816F580#00129111000000
(1608242881.219744) can0 1811F581#0D000D9B0D940DC5
(1608242881.220315) can0 1811F581#10000DFB0D9B0DA8
(1608242881.220883) can0 183281F5#0200000000000000
(1608242881.221435) can0 1811F581#13000DC70DD40DBE
(1608242881.221811) can0 1833F580#
(1608242881.222272) can0 1811F581#16000DC50DA70DCC
(1608242881.222892) can0 184081F5#0100000000000000
(1608242881.223446) can0 1811F581#19000DA00DBE0DB1
(1608242881.224038) can0 183BF4E8#0401000000000000
(1608242881.224396) can0 1811F581#1C000DC9
(1608242881.225351) can0 1812F581#0100414143404141
(1608242881.226143) can0 1812F581#070041
(1608242881.227010) can0 1813F581#
(1608242881.228332) can0 1815F581#0001000000000000
(1608242881.229274) can0 1816F581#00118111000000
(1608242881.230280) can0 1816F581#0012910D000000
(1608242881.231268) can0 1816F581#00138000000000
(1608242881.231976) can0 1814F581#
(1608242881.233007) can0 1833F581#
(1608242881.234362) can0 1833F580#
(1608242881.240365) can0 1841F580#00000000
(1608242881.242873) can0 181082F5#FFFF0DA93E80FFFF
(1608242881.244906) can0 183282F5#0100000000000000
(1608242881.246626) can0 1833F581#
(1608242881.247027) can0 183282F5#0200000000000000
(1608242881.248907) can0 184082F5#0100000000000000
(1608242881.250163) can0 1841F581#00000000
(1608242881.250881) can0 183DF4E8#01118111000000C6
(1608242881.251443) can0 1811F582#01000DC90DA50DC5
(1608242881.251958) can0 1811F582#04000DC80DDC0DC4
(1608242881.252871) can0 183DF4E8#0113A111000000CE
(1608242881.253394) can0 1811F582#07000DB30DBA0DB2
(1608242881.254039) can0 1811F582#0A000DBC0DC40DB6
(1608242881.254876) can0 183DF4E8#01129111000000C3
(1608242881.255413) can0 1811F582#0D000DB40DDC0DB9
(1608242881.255962) can0 1811F582#10000DC20D7C0D7C
(1608242881.256887) can0 183BF4E8#0801000000000000
(1608242881.257432) can0 1811F582#13000DBC0DA10DD1
(1608242881.257962) can0 1811F582#16000DC80DB50DAD
(1608242881.258890) can0 183DF4E8#0211811100000000
(1608242881.259405) can0 1811F582#19000DA20DB80DD1
(1608242881.259828) can0 1811F582#1C000DB6
(1608242881.260878) can0 183DF4E8#0212910D00000000
(1608242881.261399) can0 1812F582#0100414140414341
(1608242881.261767) can0 1812F582#070040
(1608242881.262880) can0 183DF4E8#0213800000000000
(1608242881.263223) can0 1813F582#
(1608242881.263919) can0 1815F582#0001000000000000
(1608242881.264854) can0 1816F582#00118111000000
(1608242881.265858) can0 1816F582#0012910D000000
(1608242881.266865) can0 1816F582#00138000000000
(1608242881.267612) can0 1814F582#
(1608242881.268663) can0 1833F582#
(1608242881.269605) can0 1833F582#
(1608242881.272881) can0 181083F5#FFFF0DA93E80FFFF
(1608242881.274920) can0 183283F5#0100000000000000
(1608242881.276929) can0 183283F5#0200000000000000
(1608242881.278935) can0 184083F5#0100000000000000
(1608242881.284891) can0 183BF4E8#0C01000000000000
(1608242881.286914) can0 183DF4E8#0311811100000000
(1608242881.288890) can0 183DF4E8#0312910D00000000
(1608242881.290884) can0 183DF4E8#0313800000000000
(1608242881.293796) can0 1841F582#00000000
(1608242881.303237) can0 1811F583#01000DC30DC80DB4
(1608242881.304282) can0 1811F583#04000DB20CD40CE6
(1608242881.305241) can0 1811F583#07000CD80CC70DCD
(1608242881.306259) can0 1811F583#0A000DA50DBE0DDC
(1608242881.307232) can0 1811F583#0D000DC70D940DDC
(1608242881.308265) can0 1811F583#10000DC00DB20DB3
(1608242881.309246) can0 1811F583#13000DD60DCE0DA7
(1608242881.310257) can0 1811F583#16000DDC0DC30DC9
(1608242881.311242) can0 1811F583#19000DD40DC20DB3
(1608242881.312238) can0 1811F583#1C000DBB0DE20DB0
(1608242881.313252) can0 1811F583#1F000DC40DA00DB5
(1608242881.314275) can0 1811F583#22000DAF0DAD0DEB
(1608242881.315230) can0 1811F583#25000DAC0DB90DC1
(1608242881.316250) can0 1811F583#28000DE20DC80DD7
(1608242881.317243) can0 1811F583#2B000DB70D9E0DC6
(1608242881.318261) can0 1811F583#2E000D970DD90DB1
(1608242881.319264) can0 1812F583#0100414341404041
(1608242881.320262) can0 1812F583#070040404040403F
(1608242881.320930) can0 1813F583#
(1608242881.322282) can0 1815F583#0001000000000000
(1608242881.323237) can0 1816F583#00118111000000
(1608242881.324274) can0 1816F583#00129111000000
(1608242881.325243) can0 1816F583#0013A111000000
(1608242881.325930) can0 1814F583#
(1608242881.326954) can0 1833F583#
(1608242881.336901) can0 183BF4E8#1001000000000000
(1608242881.338906) can0 183DF4E8#0411811100000000
(1608242881.340902) can0 183DF4E8#0412911100000000
(1608242881.341979) can0 1833F583#
(1608242881.342881) can0 183DF4E8#0413A11100000000
(1608242881.347113) can0 1841F583#00000000
(1608242881.596672) can0 1830E8F4#0800000000000000
(1608242881.600880) can0 1838F4E8#0000000000FFFFFF
(1608242881.646250) can0 1830E8F4#0800000000000000
(1608242881.664873) can0 1838F4E8#0000000000FFFFFF
(1608242881.692852) can0 181080F5#FFFF0DA93E80FFFF
(1608242881.694881) can0 183280F5#0100000000000000
(1608242881.696874) can0 183280F5#0200000000000000
(1608242881.698884) can0 184080F5#0100000000000000
(1608242881.712527) can0 1811F580#01000D970DD70DE9
(1608242881.713050) can0 181081F5#FFFF0DA93E80FFFF
(1608242881.713617) can0 1811F580#04000DCF0DDD0DB0
(1608242881.714539) can0 1811F580#07000DF10DE00DF0
(1608242881.715235) can0 183281F5#0100000000000000
(1608242881.715598) can0 1811F580#0A000DB50DA70DB4
(1608242881.716543) can0 1811F580#0D000DB60DCC0DB9
(1608242881.717074) can0 183281F5#0200000000000000
(1608242881.717654) can0 1811F580#10000DB10DC20DB6
(1608242881.718560) can0 1811F580#13000DA20DE90D4C
(1608242881.719070) can0 184081F5#0100000000000000
(1608242881.719641) can0 1811F580#16000D670D620D77
(1608242881.720499) can0 1811F580#19000CE50CD90CC1
(1608242881.721537) can0 1811F580#1C000CE10DD40DA4
(1608242881.722545) can0 1811F580#1F000DD70DB50D9F
(1608242881.723286) can0 1811F581#01000DBD0DCF0DC6
(1608242881.723806) can0 1811F580#22000DA40DED0DC9
(1608242881.724386) can0 1811F581#04000DB50DAF0DAB
(1608242881.724940) can0 1811F580#25000DB60DAB0DEE
(1608242881.725481) can0 1811F581#07000DCA0DDB0CCE
(1608242881.726043) can0 1811F580#28000DC60DBB0DB7
(1608242881.726608) can0 1811F580#2B000DCE0DAE0DBA
(1608242881.727183) can0 1811F581#0A000CEC0CBA0CC3
(1608242881.727726) can0 1811F580#2E000DC20DA30DC7
(1608242881.728284) can0 1811F581#0D000D9B0D940DC4
(1608242881.728845) can0 1811F581#10000DFB0D9B0DA8
(1608242881.729382) can0 1811F581#13000DC70DD50DBE
(1608242881.729969) can0 1812F580#01004141403F4041
(1608242881.730508) can0 1811F581#16000DC50DA70DCC
(1608242881.731084) can0 1812F580#0700424141414140
(1608242881.731661) can0 1811F581#19000DA00DBE0DB1
(1608242881.732241) can0 1815F580#0001000000000000
(1608242881.732593) can0 1811F581#1C000DC9
(1608242881.733193) can0 1816F580#00118111000000
(1608242881.733749) can0 1812F581#0100414143404141
(1608242881.734156) can0 1812F581#070041
(1608242881.734685) can0 1816F580#00129111000000
(1608242881.735208) can0 1816F580#0013A111000000
(1608242881.735541) can0 1813F581#
(1608242881.735867) can0 1814F580#
(1608242881.736198) can0 1813F580#
(1608242881.736644) can0 1815F581#0001000000000000
(1608242881.736979) can0 1833F580#
(1608242881.737461) can0 1816F581#00118111000000
(1608242881.738280) can0 1816F581#0012910D000000
(1608242881.739302) can0 1816F581#00138000000000
(1608242881.740003) can0 1814F581#
(1608242881.741039) can0 1833F581#
(1608242881.742041) can0 1833F581#
(1608242881.742838) can0 181082F5#FFFF0DA93E80FFFF
(1608242881.743198) can0 1841F581#00000000
(1608242881.744863) can0 183282F5#0100000000000000
(1608242881.746889) can0 183282F5#0200000000000000
(1608242881.748894) can0 184082F5#0100000000000000
(1608242881.751257) can0 1833F580#
(1608242881.752882) can0 183BF4E8#0401000000000000
(1608242881.754873) can0 183DF4E8#0111811100000000
(1608242881.756867) can0 183DF4E8#0112911100000041
(1608242881.757390) can0 1841F580#00000000
(1608242881.758870) can0 183DF4E8#0113A11100000041
(1608242881.760878) can0 183BF4E8#0801000000000000
(1608242881.762866) can0 183DF4E8#0211811100000000
(1608242881.764863) can0 183DF4E8#0212910D00000000
(1608242881.766872) can0 183DF4E8#0213800000000000
(1608242881.772847) can0 181083F5#FFFF0DA93E80FFFF
(1608242881.773369) can0 1811F582#01000DC90DA60DC5
(1608242881.774007) can0 1811F582#04000DC80DDC0DC3
(1608242881.774844) can0 183283F5#0100000000000000
(1608242881.775380) can0 1811F582#07000DB30DBA0DB3
(1608242881.775945) can0 1811F582#0A000DBC0DC40DB6
(1608242881.776858) can0 183283F5#0200000000000000
(1608242881.777376) can0 1811F582#0D000DB40DDC0DB9
(1608242881.777952) can0 1811F582#10000DC10D7C0D7C
(1608242881.778971) can0 184083F5#0100000000000000
(1608242881.779354) can0 1811F582#13000DBC0DA00DD1
(1608242881.780076) can0 1811F582#16000DC80DB50DAE
(1608242881.780990) can0 1811F582#19000DA20DB80DD1
(1608242881.781776) can0 1811F582#1C000DB7
(1608242881.783066) can0 1812F582#0100414140414341
(1608242881.783743) can0 1812F582#070040
(1608242881.784644) can0 1813F582#
(1608242881.785238) can0 1811F583#01000DC40DC80DB4
(1608242881.785933) can0 1815F582#0001000000000000
(1608242881.786486) can0 1811F583#04000DB20CD40CE6
(1608242881.787018) can0 1816F582#00118111000000
(1608242881.787561) can0 1811F583#07000CD80CC70DCD
(1608242881.788090) can0 1816F582#0012910D000000
(1608242881.788652) can0 1811F583#0A000DA50DBE0DDC
(1608242881.789199) can0 1816F582#00138000000000
(1608242881.789749) can0 1811F583#0D000DC70D940DDC
(1608242881.790309) can0 1811F583#10000DC00DB20DB3
(1608242881.790661) can0 1814F582#
(1608242881.790998) can0 1833F582#
(1608242881.791427) can0 1811F583#13000DD60DCE0DA7
(1608242881.792023) can0 183BF4E8#0C01000000000000
(1608242881.792577) can0 1811F583#16000DDC0DC30DC9
(1608242881.793267) can0 1811F583#19000DD40DC20DB4
(1608242881.794331) can0 1811F583#1C000DBB0DE30DB0
(1608242881.795245) can0 1811F583#1F000DC40DA00DB5
(1608242881.796259) can0 1811F583#22000DAF0DAD0DEA
(1608242881.797273) can0 1811F583#25000DAC0DB90DC1
(1608242881.798257) can0 1811F583#28000DE20DC80DD7
(1608242881.799262) can0 1811F583#2B000DB70D9E0DC6
(1608242881.800251) can0 1811F583#2E000D970DD90DB1
(1608242881.801273) can0 1812F583#0100414341404041
(1608242881.801640) can0 1833F582#
(1608242881.802256) can0 1812F583#070040404040403F
(1608242881.802948) can0 1813F583#
(1608242881.804376) can0 1815F583#0001000000000000
(1608242881.805222) can0 1816F583#00118111000000
(1608242881.806273) can0 1816F583#00129111000000
(1608242881.806798) can0 183DF4E8#03118111000000E6
(1608242881.807318) can0 1816F583#0013A111000000
(1608242881.807782) can0 1841F582#00000000
(1608242881.808098) can0 1814F583#
(1608242881.808813) can0 183DF4E8#0312910D000000CD
(1608242881.809154) can0 1833F583#
(1608242881.810862) can0 183DF4E8#03138000000000DC
(1608242881.812882) can0 183BF4E8#1001000000000000
(1608242881.814862) can0 183DF4E8#0411811100000000
(1608242881.816868) can0 183DF4E8#0412911100000000
(1608242881.818869) can0 183DF4E8#0413A11100000000
(1608242881.824001) can0 1833F583#
(1608242881.829138) can0 1841F583#00000000
(1608242882.104438) can0 1830E8F4#0800000000000000
(1608242882.120802) can0 183ECCE8#41375E333743433F
(1608242882.122820) can0 183FCCE8#0535002214C33E80
(1608242882.124827) can0 1840CCE8#3E80F9383E803E80
(1608242882.126864) can0 1838F4E8#0000000000FFFFFF
(1608242882.152547) can0 1830E8F4#0800000000000000
(1608242882.168835) can0 1838F4E8#0000000000FFFFFF
(1608242882.192807) can0 181080F5#FFFF0DA93E80FFFF
(1608242882.194557) can0 1811F580#01000D970DD70DE9
(1608242882.195104) can0 183280F5#0100000000000000
(1608242882.195681) can0 1811F580#04000DCF0DDD0DB0
(1608242882.196614) can0 1811F580#07000DF10DE00DF0
(1608242882.197095) can0 183280F5#0200000000000000
(1608242882.197657) can0 1811F580#0A000DB50DA70DB4
(1608242882.198554) can0 1811F580#0D000DB60DCB0DBA
(1608242882.199084) can0 184080F5#0100000000000000
(1608242882.199673) can0 1811F580#10000DB10DC20DB6
(1608242882.200553) can0 1811F580#13000DA20DE90D4C
(1608242882.201546) can0 1811F580#16000D670D620D77
(1608242882.202571) can0 1811F580#19000CE50CD90CC1
(1608242882.203547) can0 1811F580#1C000CE10DD40DA4
(1608242882.204558) can0 1811F580#1F000DD60DB50D9F
(1608242882.205588) can0 1811F580#22000DA40DEC0DC9
(1608242882.206550) can0 1811F580#25000DB60DAB0DED
(1608242882.207565) can0 1811F580#28000DC60DBB0DB8
(1608242882.208572) can0 1811F580#2B000DCE0DAE0DBA
(1608242882.209554) can0 1811F580#2E000DC20DA30DC7
(1608242882.210575) can0 1812F580#0100414140404041
(1608242882.211569) can0 1812F580#0700424141414140
(1608242882.212237) can0 1813F580#
(1608242882.212811) can0 181081F5#FFFF0DA93E80FFFF
(1608242882.213567) can0 1815F580#0001000000000000
(1608242882.214524) can0 1816F580#00118111000000
(1608242882.215084) can0 183281F5#0100000000000000
(1608242882.215613) can0 1816F580#00129111000000
(1608242882.216547) can0 1816F580#0013A111000000
(1608242882.217069) can0 183281F5#0200000000000000
(1608242882.217424) can0 1814F580#
(1608242882.218344) can0 1811F581#01000DBD0DCF0DC7
(1608242882.218702) can0 1833F580#
(1608242882.219149) can0 184081F5#0100000000000000
(1608242882.219709) can0 1811F581#04000DB50DAF0DAB
(1608242882.220300) can0 1811F581#07000DCA0DDB0CCE
(1608242882.221341) can0 1811F581#0A000CEC0CBA0CC3
(1608242882.222331) can0 1811F581#0D000D9B0D950DC4
(1608242882.223331) can0 1811F581#10000DFC0D9B0DA8
(1608242882.224349) can0 1811F581#13000DC70DD50DBE
(1608242882.225313) can0 1811F581#16000DC50DA70DCC
(1608242882.226350) can0 1811F581#19000DA00DBE0DB1
(1608242882.226892) can0 183BF4E8#0401000000000000
(1608242882.227609) can0 1811F581#1C000DC9
(1608242882.228318) can0 1812F581#0100414143404141
(1608242882.228875) can0 183DF4E8#0111811100000000
(1608242882.229223) can0 1812F581#070041
(1608242882.230028) can0 1813F581#
(1608242882.230797) can0 183DF4E8#0112911100000000
(1608242882.231370) can0 1815F581#0001000000000000
(1608242882.232275) can0 1816F581#00118111000000
(1608242882.232830) can0 183DF4E8#0113A11100000000
(1608242882.233381) can0 1816F581#0012910D000000
(1608242882.233715) can0 1833F580#
(1608242882.234257) can0 1816F581#00138000000000
(1608242882.235023) can0 1814F581#
(1608242882.236871) can0 183BF4E8#0801000000000000
(1608242882.238862) can0 183DF4E8#0211811100000000
(1608242882.239371) can0 1841F580#00000000
(1608242882.240827) can0 183DF4E8#0212910D00000000
(1608242882.242854) can0 183DF4E8#0213800000000000
(1608242882.244817) can0 181082F5#FFFF0DA93E80FFFF
(1608242882.246855) can0 183282F5#0100000000000000
(1608242882.248863) can0 183282F5#0200000000000000
(1608242882.250060) can0 1833F581#
(1608242882.250909) can0 184082F5#0100000000000000
(1608242882.251970) can0 1811F582#01000DC90DA60DC5
(1608242882.252947) can0 1811F582#04000DC80DDC0DC3
(1608242882.254070) can0 1811F582#07000DB30DBB0DB3
(1608242882.254942) can0 1811F582#0A000DBC0DC50DB7
(1608242882.255974) can0 1811F582#0D000DB40DDC0DB9
(1608242882.256344) can0 1833F581#
(1608242882.256932) can0 1811F582#10000DC20D7C0D7C
(1608242882.257956) can0 1811F582#13000DBC0DA00DD1
(1608242882.258957) can0 1811F582#16000DC80DB50DAE
(1608242882.259952) can0 1811F582#19000DA20DB80DD1
(1608242882.260809) can0 1811F582#1C000DB7
(1608242882.261204) can0 1841F581#00000000
(1608242882.261968) can0 1812F582#0100414140414341
(1608242882.262905) can0 1812F582#070040
(1608242882.263652) can0 1813F582#
(1608242882.265062) can0 1815F582#0001000000000000
(1608242882.265920) can0 1816F582#00118111000000
(1608242882.266978) can0 1816F582#0012910D000000
(1608242882.267924) can0 1816F582#00138000000000
(1608242882.268631) can0 1814F582#
(1608242882.269660) can0 1833F582#
(1608242882.270691) can0 1833F582#
(1608242882.272839) can0 181083F5#FFFF0DA93E80FFFF
(1608242882.274832) can0 183283F5#0100000000000000
(1608242882.276857) can0 183283F5#0200000000000000
(1608242882.278830) can0 184083F5#0100000000000000
(1608242882.286812) can0 1841F582#00000000
(1608242882.290811) can0 183BF4E8#0C01000000000000
(1608242882.292827) can0 183DF4E8#0311811100000000
(1608242882.294825) can0 183DF4E8#0312910D00000000
(1608242882.297981) can0 183DF4E8#0313800000000000
(1608242882.302299) can0 1811F583#01000DC40DC80DB4
(1608242882.303319) can0 1811F583#04000DB20CD40CE6
(1608242882.304320) can0 1811F583#07000CD80CC70DCD
(1608242882.305302) can0 1811F583#0A000DA50DBE0DDC
(1608242882.306304) can0 1811F583#0D000DC70D930DDC
(1608242882.307326) can0 1811F583#10000DC00DB20DB3
(1608242882.308373) can0 1811F583#13000DD60DCE0DA7
(1608242882.309301) can0 1811F583#16000DDC0DC30DC9
(1608242882.310299) can0 1811F583#19000DD40DC20DB3
(1608242882.311305) can0 1811F583#1C000DBA0DE30DB0
(1608242882.312307) can0 1811F583#1F000DC40DA00DB5
(1608242882.313299) can0 1811F583#22000DAF0DAC0DEA
(1608242882.314310) can0 1811F583#25000DAC0DB90DC1
(1608242882.315295) can0 1811F583#28000DE20DC80DD7
(1608242882.316294) can0 1811F583#2B000DB70D9E0DC6
(1608242882.317317) can0 1811F583#2E000D970DD90DB1
(1608242882.318382) can0 1812F583#0100414341404041
(1608242882.319330) can0 1812F583#070040404040403F
(1608242882.319987) can0 1813F583#
(1608242882.321343) can0 1815F583#0001000000000000
(1608242882.322304) can0 1816F583#00118111000000
(1608242882.323278) can0 1816F583#00129111000000
(1608242882.324416) can0 1816F583#0013A111000000
(1608242882.324959) can0 1814F583#
(1608242882.326027) can0 1833F583#
(1608242882.327069) can0 1833F583#
(1608242882.330823) can0 183BF4E8#1001000000000000
(1608242882.332857) can0 183DF4E8#0411811100000000
(1608242882.334802) can0 183DF4E8#0412911100000000
(1608242882.336830) can0 183DF4E8#0413A11100000000
(1608242882.347159) can0 1841F583#00000000
(1608242882.609873) can0 1830E8F4#0800000000000000
(1608242882.612801) can0 1838F4E8#0000000000FFFFFF
(1608242882.656132) can0 1830E8F4#0800000000000000
(1608242882.660798) can0 1838F4E8#0000000000FFFFFF
(1608242882.692771) can0 181080F5#FFFF0DA93E80FFFF
(1608242882.694868) can0 183280F5#0100000000000000
(1608242882.696915) can0 183280F5#0200000000000000
(1608242882.698791) can0 184080F5#0100000000000000
(1608242882.712566) can0 1811F580#01000D970DD70DE9
(1608242882.713096) can0 181081F5#FFFF0DA93E80FFFF
(1608242882.713684) can0 1811F580#04000DD00DDD0DB0
(1608242882.714588) can0 1811F580#07000DF10DE00DF0
(1608242882.715129) can0 183281F5#0100000000000000
(1608242882.715694) can0 1811F580#0A000DB50DA70DB4
(1608242882.716575) can0 1811F580#0D000DB60DCB0DBA
(1608242882.717136) can0 183281F5#0200000000000000
(1608242882.717696) can0 1811F580#10000DB10DC20DB6
(1608242882.718566) can0 1811F580#13000DA20DE90D4C
(1608242882.719151) can0 184081F5#0100000000000000
(1608242882.719711) can0 1811F580#16000D670D620D77
(1608242882.720609) can0 1811F580#19000CE40CD90CC1
(1608242882.721593) can0 1811F580#1C000CE10DD40DA4
(1608242882.722599) can0 1811F580#1F000DD60DB50D9F
(1608242882.723601) can0 1811F580#22000DA40DEC0DC9
(1608242882.724590) can0 1811F580#25000DB50DAB0DEE
(1608242882.725578) can0 1811F580#28000DC60DBB0DB8
(1608242882.726578) can0 1811F580#2B000DCE0DAE0DBA
(1608242882.727605) can0 1811F580#2E000DC20DA30DC7
(1608242882.728639) can0 1812F580#0100414140404041
(1608242882.729581) can0 1812F580#0700424141414140
(1608242882.730248) can0 1813F580#
(1608242882.731632) can0 1815F580#0001000000000000
(1608242882.732553) can0 1816F580#00118111000000
(1608242882.733564) can0 1816F580#00129111000000
(1608242882.734317) can0 1811F581#01000DBD0DCE0DC7
(1608242882.734857) can0 1816F580#0013A111000000
(1608242882.735399) can0 1811F581#04000DB60DAF0DAB
(1608242882.735748) can0 1814F580#
(1608242882.736337) can0 1811F581#07000DCA0DDB0CCE
(1608242882.736683) can0 1833F580#
(1608242882.737340) can0 1811F581#0A000CEC0CBA0CC3
(1608242882.737677) can0 1833F580#
(1608242882.738315) can0 1811F581#0D000D9B0D940DC5
(1608242882.739398) can0 1811F581#10000DFC0D9B0DA8
(1608242882.740461) can0 1811F581#13000DC70DD50DBE
(1608242882.741341) can0 1811F581#16000DC50DA70DCC
(1608242882.742498) can0 1811F581#19000DA00DBE0DB1
(1608242882.742854) can0 181082F5#FFFF0DA93E80FFFF
(1608242882.743296) can0 1811F581#1C000DC9
(1608242882.744374) can0 1812F581#0100414143404141
(1608242882.744903) can0 183282F5#0100000000000000
(1608242882.745241) can0 1812F581#070041
(1608242882.746063) can0 1813F581#
(1608242882.746770) can0 183282F5#0200000000000000
(1608242882.747378) can0 1815F581#0001000000000000
(1608242882.748344) can0 1816F581#00118111000000
(1608242882.748865) can0 184082F5#0100000000000000
(1608242882.749512) can0 1816F581#0012910D000000
(1608242882.750354) can0 1816F581#00138000000000
(1608242882.751063) can0 1814F581#
(1608242882.752090) can0 1833F581#
(1608242882.756440) can0 1841F580#00000000
(1608242882.763994) can0 1811F582#01000DC90DA60DC5
(1608242882.764957) can0 1811F582#04000DC90DDC0DC3
(1608242882.765968) can0 1811F582#07000DB30DBB0DB3
(1608242882.766990) can0 1811F582#0A000DBC0DC50DB7
(1608242882.767990) can0 1811F582#0D000DB40DDC0DB9
(1608242882.769067) can0 1811F582#10000DC20D7C0D7C
(1608242882.769969) can0 1811F582#13000DBC0DA00DD1
(1608242882.771048) can0 1811F582#16000DC80DB50DAE
(1608242882.771997) can0 1811F582#19000DA20DB80DD1
(1608242882.772390) can0 1833F581#
(1608242882.772988) can0 181083F5#FFFF0DA93E80FFFF
(1608242882.773339) can0 1811F582#1C000DB7
(1608242882.774031) can0 1812F582#0100414140414341
(1608242882.774792) can0 183283F5#0100000000000000
(1608242882.775140) can0 1812F582#070040
(1608242882.775646) can0 1813F582#
(1608242882.776810) can0 183283F5#0200000000000000
(1608242882.777349) can0 1815F582#0001000000000000
(1608242882.777773) can0 1841F581#00000000
(1608242882.778308) can0 1816F582#00118111000000
(1608242882.778888) can0 184083F5#0100000000000000
(1608242882.779422) can0 1816F582#0012910D000000
(1608242882.779963) can0 1816F582#00138000000000
(1608242882.780805) can0 183BF4E8#0401000000000000
(1608242882.781185) can0 1814F582#
(1608242882.781696) can0 1833F582#
(1608242882.782846) can0 183DF4E8#0111811100000000
(1608242882.783247) can0 1833F582#
(1608242882.783822) can0 1841F582#00000000
(1608242882.784387) can0 1811F583#01000DC40DC80DB4
(1608242882.784965) can0 183DF4E8#0112911100000000
(1608242882.785517) can0 1811F583#04000DB20CD40CE6
(1608242882.786306) can0 1811F583#07000CD80CC70DCD
(1608242882.786851) can0 183DF4E8#0113A111000000C7
(1608242882.787415) can0 1811F583#0A000DA50DBE0DDC
(1608242882.788308) can0 1811F583#0D000DC70D930DDC
(1608242882.788864) can0 183BF4E8#0801000000000000
(1608242882.789433) can0 1811F583#10000DC00DB20DB2
(1608242882.790317) can0 1811F583#13000DD60DCE0DA7
(1608242882.790862) can0 183DF4E8#0211811100000000
(1608242882.791418) can0 1811F583#16000DDC0DC30DC9
(1608242882.792333) can0 1811F583#19000DD40DC20DB3
(1608242882.792869) can0 183DF4E8#0212910D00000000
(1608242882.793411) can0 1811F583#1C000DBB0DE30DB0
(1608242882.794314) can0 1811F583#1F000DC40DA00DB5
(1608242882.794871) can0 183DF4E8#0213800000000000
(1608242882.795425) can0 1811F583#22000DAF0DAC0DEA
(1608242882.796326) can0 1811F583#25000DAC0DB90DC1
(1608242882.796863) can0 183BF4E8#0C01000000000000
(1608242882.797433) can0 1811F583#28000DE20DC80DD7
(1608242882.798308) can0 1811F583#2B000DB70D9E0DC7
(1608242882.798860) can0 183DF4E8#0311811100000000
(1608242882.799416) can0 1811F583#2E000D970DD90DB1
(1608242882.800333) can0 1812F583#0100414341404041
(1608242882.800874) can0 183DF4E8#0312910D00000000
(1608242882.801433) can0 1812F583#070040404040403F
(1608242882.802015) can0 1813F583#
(1608242882.802775) can0 183DF4E8#0313800000000000
(1608242882.803338) can0 1815F583#0001000000000000
(1608242882.804315) can0 1816F583#00118111000000
(1608242882.805301) can0 1816F583#00129111000000
(1608242882.806300) can0 1816F583#0013A111000000
(1608242882.807012) can0 1814F583#
(1608242882.808060) can0 1833F583#
(1608242882.808773) can0 183BF4E8#1001000000000000
(1608242882.810829) can0 183DF4E8#0411811100000000
(1608242882.812786) can0 183DF4E8#0412911100000000
(1608242882.814803) can0 183DF4E8#0413A11100000000
(1608242882.823040) can0 1833F583#
(1608242882.829190) can0 1841F583#00000000
(1608242883.116482) can0 1830E8F4#0800000000000000
(1608242883.120771) can0 1838F4E8#0000000000FFFFFF
(1608242883.160116) can0 1830E8F4#0800000000000000
(1608242883.164762) can0 1838F4E8#0000000000FFFFFF
(1608242883.192733) can0 181080F5#FFFF0DA93E80FFFF
(1608242883.194786) can0 183280F5#0100000000000000
(1608242883.196772) can0 183280F5#0200000000000000
(1608242883.197591) can0 1811F580#01000D970DD70DE9
(1608242883.198593) can0 1811F580#04000DD00DDD0DAF
(1608242883.199132) can0 184080F5#0100000000000000
(1608242883.199703) can0 1811F580#07000DF10DE00DF0
(1608242883.200610) can0 1811F580#0A000DB50DA70DB4
(1608242883.201639) can0 1811F580#0D000DB60DCB0DB9
(1608242883.202585) can0 1811F580#10000DB00DC20DB6
(1608242883.203599) can0 1811F580#13000DA20DE90D4C
(1608242883.204618) can0 1811F580#16000D670D620D77
(1608242883.205608) can0 1811F580#19000CE50CD90CC1
(1608242883.206594) can0 1811F580#1C000CE10DD40DA4
(1608242883.207595) can0 1811F580#1F000DD60DB50DA0
(1608242883.208590) can0 1811F580#22000DA40DEC0DC9
(1608242883.209573) can0 1811F580#25000DB50DAB0DED
(1608242883.210602) can0 1811F580#28000DC70DBB0DB8
(1608242883.211673) can0 1811F580#2B000DCE0DAE0DBA
(1608242883.212575) can0 1811F580#2E000DC20DA30DC7
(1608242883.213116) can0 181081F5#FFFF0DA93E80FFFF
(1608242883.213694) can0 1812F580#0100414140404041
(1608242883.214614) can0 1812F580#0700424141414140
(1608242883.215149) can0 183281F5#0100000000000000
(1608242883.215496) can0 1813F580#
(1608242883.216656) can0 1815F580#0001000000000000
(1608242883.217189) can0 183281F5#0200000000000000
(1608242883.217706) can0 1816F580#00118111000000
(1608242883.218590) can0 1816F580#00129111000000
(1608242883.219114) can0 184081F5#0100000000000000
(1608242883.219684) can0 1811F581#01000DBD0DCE0DC7
(1608242883.220204) can0 1816F580#0013A111000000
(1608242883.221462) can0 1811F581#04000DB60DAF0DAB
(1608242883.221852) can0 1833F580#
(1608242883.222109) can0 1814F580#
(1608242883.222613) can0 1811F581#0A000CEC0CBA0CC3
(1608242883.223036) can0 183BF4E8#0401000000000000
(1608242883.223608) can0 1811F581#0D000D9B0D940DC5
(1608242883.224231) can0 183DF4E8#0111811100000000
(1608242883.224742) can0 1811F581#10000DFC0D9B0DA8
(1608242883.225308) can0 183DF4E8#0112911100000000
(1608242883.225974) can0 1811F581#13000DC70DD50DBE
(1608242883.226486) can0 1811F581#16000DC50DA70DCC
(1608242883.226973) can0 183DF4E8#0113A111000000C7
(1608242883.227569) can0 1811F581#19000DA00DBE0DB1
(1608242883.228199) can0 1811F581#1C000DC9
(1608242883.229388) can0 1812F581#0100414143404141
(1608242883.230208) can0 1812F581#070041
(1608242883.231099) can0 1813F581#
(1608242883.232410) can0 1815F581#0001000000000000
(1608242883.233335) can0 1816F581#00118111000000
(1608242883.234334) can0 1816F581#0012910D000000
(1608242883.235362) can0 1816F581#00138000000000
(1608242883.236083) can0 1814F581#
(1608242883.236896) can0 183BF4E8#0801000000000000
(1608242883.238325) can0 1833F580#
(1608242883.238829) can0 183DF4E8#0211811100000000
(1608242883.240733) can0 183DF4E8#0212910D00000000
(1608242883.242731) can0 181082F5#FFFF0DA93E80FFFF
(1608242883.245652) can0 1841F580#00000000
(1608242883.245976) can0 183282F5#0100000000000000
(1608242883.246753) can0 183282F5#0200000000000000
(1608242883.248813) can0 184082F5#0100000000000000
(1608242883.249334) can0 1811F582#01000DC90DA60DC5
(1608242883.250004) can0 1811F582#04000DC90DDC0DC3
(1608242883.250688) can0 183ECCE8#41375D333743433F
(1608242883.251234) can0 1811F582#07000DB30DBB0DB3
(1608242883.251586) can0 1833F581#
(1608242883.252164) can0 1811F582#0A000DBC0DC50DB7
(1608242883.252715) can0 183FCCE8#0535002214C33E80
(1608242883.253254) can0 1811F582#0D000DB40DDC0DB9
(1608242883.254076) can0 1811F582#10000DC20D7C0D7C
(1608242883.254703) can0 1840CCE8#3E80F9383E803E80
(1608242883.255259) can0 1811F582#13000DBC0DA10DD1
(1608242883.255975) can0 1811F582#16000DC80DB60DAE
(1608242883.256330) can0 1833F581#
(1608242883.256826) can0 183DF4E8#0213800000000000
(1608242883.257402) can0 1811F582#19000DA20DB80DD1
(1608242883.257837) can0 1811F582#1C000DB7
(1608242883.259000) can0 1812F582#0100414140414341
(1608242883.259826) can0 1812F582#070040
(1608242883.260738) can0 1813F582#
(1608242883.262057) can0 1815F582#0001000000000000
(1608242883.262459) can0 1841F581#00000000
(1608242883.262965) can0 1816F582#00118111000000
(1608242883.264031) can0 1816F582#0012910D000000
(1608242883.264978) can0 1816F582#00138000000000
(1608242883.265789) can0 1814F582#
(1608242883.266766) can0 183BF4E8#0C01000000000000
(1608242883.267142) can0 1833F582#
(1608242883.267689) can0 1833F582#
(1608242883.268769) can0 183DF4E8#0311811100000000
(1608242883.270732) can0 183DF4E8#0312910D00000000
(1608242883.272798) can0 183DF4E8#0313800000000000
(1608242883.274762) can0 181083F5#FFFF0DA93E80FFFF
(1608242883.276767) can0 183283F5#0100000000000000
(1608242883.278770) can0 183283F5#0200000000000000
(1608242883.280781) can0 184083F5#0100000000000000
(1608242883.291874) can0 1841F582#00000000
(1608242883.307338) can0 1811F583#01000DC30DC90DB4
(1608242883.308455) can0 1811F583#04000DB20CD40CE6
(1608242883.309384) can0 1811F583#07000CD80CC70DCD
(1608242883.310417) can0 1811F583#0A000DA50DBE0DDC
(1608242883.311350) can0 1811F583#0D000DC70D930DDC
(1608242883.312373) can0 1811F583#10000DC00DB20DB2
(1608242883.313388) can0 1811F583#13000DD60DCE0DA7
(1608242883.314337) can0 1811F583#16000DDC0DC30DC9
(1608242883.315340) can0 1811F583#19000DD40DC20DB4
(1608242883.316360) can0 1811F583#1C000DBB0DE20DB0
(1608242883.317391) can0 1811F583#1F000DC40DA00DB5
(1608242883.318383) can0 1811F583#22000DAF0DAD0DEA
(1608242883.319400) can0 1811F583#25000DAC0DB90DC1
(1608242883.320372) can0 1811F583#28000DE20DC80DD7
(1608242883.321388) can0 1811F583#2B000DB70D9E0DC7
(1608242883.322378) can0 1811F583#2E000D970DD90DB1
(1608242883.323409) can0 1812F583#0100414341404041
(1608242883.324346) can0 1812F583#070040404040403F
(1608242883.325069) can0 1813F583#
(1608242883.326406) can0 1815F583#0001000000000000
(1608242883.327324) can0 1816F583#00118111000000
(1608242883.328378) can0 1816F583#00129111000000
(1608242883.329332) can0 1816F583#0013A111000000
(1608242883.330041) can0 1814F583#
(1608242883.330758) can0 183BF4E8#1001000000000000
(1608242883.331149) can0 1833F583#
(1608242883.332785) can0 183DF4E8#0411811100000000
(1608242883.334771) can0 183DF4E8#0412911100000000
(1608242883.336763) can0 183DF4E8#0413A11100000000
(1608242883.346076) can0 1833F583#
(1608242883.351217) can0 1841F583#00000000
(1608242883.622916) can0 1830E8F4#0800000000000000
(1608242883.624756) can0 1838F4E8#0000000000FFFFFF
(1608242883.665831) can0 1830E8F4#0800000000000000
(1608242883.676734) can0 1838F4E8#0000000000FFFFFF
(1608242883.692720) can0 181080F5#FFFF0DA93E80FFFF
(1608242883.694741) can0 183280F5#0100000000000000
(1608242883.696754) can0 183280F5#0200000000000000
(1608242883.698732) can0 184080F5#0100000000000000
(1608242883.711613) can0 1811F580#01000D970DD70DE9
(1608242883.712686) can0 1811F580#04000DD00DDD0DB0
(1608242883.713197) can0 181081F5#FFFF0DA93E80FFFF
(1608242883.713725) can0 1811F580#07000DF20DE00DF0
(1608242883.714612) can0 1811F580#0A000DB50DA70DB4
(1608242883.715150) can0 183281F5#0100000000000000
(1608242883.715708) can0 1811F580#0D000DB60DCB0DB9
(1608242883.716629) can0 1811F580#10000DB10DC10DB6
(1608242883.717166) can0 183281F5#0200000000000000
(1608242883.717765) can0 1811F580#13000DA20DE90D4B
(1608242883.718603) can0 1811F580#16000D670D620D77
(1608242883.719171) can0 184081F5#0100000000000000
(1608242883.719724) can0 1811F580#19000CE50CD90CC1
(1608242883.720618) can0 1811F580#1C000CE10DD40DA4
(1608242883.721630) can0 1811F580#1F000DD60DB50DA0
(1608242883.722638) can0 1811F580#22000DA40DEC0DC9
(1608242883.723594) can0 1811F580#25000DB50DAB0DED
(1608242883.724626) can0 1811F580#28000DC70DBB0DB8
(1608242883.725624) can0 1811F580#2B000DCE0DAE0DBA
(1608242883.726592) can0 1811F580#2E000DC20DA30DC7
(1608242883.727623) can0 1812F580#0100414140404041
(1608242883.728610) can0 1812F580#0700424141414140
(1608242883.729296) can0 1813F580#
(1608242883.730647) can0 1815F580#0001000000000000
(1608242883.731581) can0 1816F580#00118111000000
(1608242883.732584) can0 1816F580#00129111000000
(1608242883.733577) can0 1816F580#0013A111000000
(1608242883.734323) can0 1814F580#
(1608242883.735319) can0 1833F580#
(1608242883.736323) can0 1833F580#
(1608242883.742713) can0 181082F5#FFFF0DA93E80FFFF
(1608242883.744751) can0 183282F5#0100000000000000
(1608242883.746766) can0 183282F5#0200000000000000
(1608242883.748735) can0 184082F5#0100000000000000
(1608242883.750734) can0 183BF4E8#0401000000000000
(1608242883.752725) can0 183DF4E8#0111811100000000
(1608242883.754717) can0 183DF4E8#0112911100000000
(1608242883.755482) can0 1841F580#00000000
(1608242883.756741) can0 183DF4E8#0113A11100000000
(1608242883.772700) can0 181083F5#FFFF0DA93E80FFFF
(1608242883.774747) can0 183283F5#0100000000000000
(1608242883.776711) can0 183283F5#0200000000000000
(1608242883.778720) can0 184083F5#0100000000000000
(1608242883.786372) can0 1811F583#01000DC30DC80DB4
(1608242883.787393) can0 1811F583#04000DB20CD40CE6
(1608242883.788395) can0 1811F583#07000CD80CC70DCD
(1608242883.789374) can0 1811F583#0A000DA50DBE0DDC
(1608242883.790410) can0 1811F583#0D000DC70D940DDC
(1608242883.791414) can0 1811F583#10000DC00DB20DB2
(1608242883.792367) can0 1811F583#13000DD60DCE0DA7
(1608242883.793408) can0 1811F583#16000DDC0DC30DC9
(1608242883.794360) can0 1811F583#19000DD40DC20DB3
(1608242883.795385) can0 1811F583#1C000DBB0DE20DB0
(1608242883.796361) can0 1811F583#1F000DC40DA00DB5
(1608242883.797395) can0 1811F583#22000DAF0DAD0DEA
(1608242883.798367) can0 1811F583#25000DAC0DB90DC1
(1608242883.799374) can0 1811F583#28000DE20DC80DD7
(1608242883.800366) can0 1811F583#2B000DB70D9E0DC7
(1608242883.801401) can0 1811F583#2E000D970DD90DB1
(1608242883.802407) can0 1812F583#0100414341404041
(1608242883.803367) can0 1812F583#070040404040403F
(1608242883.804062) can0 1813F583#
(1608242883.805417) can0 1815F583#0001000000000000
(1608242883.806337) can0 1816F583#00118111000000
(1608242883.807336) can0 1816F583#00129111000000
(1608242883.808354) can0 1816F583#0013A111000000
(1608242883.808891) can0 183BF4E8#1001000000000000
(1608242883.809451) can0 1814F583#
(1608242883.810046) can0 1833F583#
(1608242883.810691) can0 183DF4E8#0411811100000000
(1608242883.812707) can0 183DF4E8#0412911100000000
(1608242883.814710) can0 183DF4E8#0413A11100000000
(1608242883.823014) can0 1811F582#01000DC90DA60DC6
(1608242883.824056) can0 1811F582#04000DC90DDC0DC4
(1608242883.824442) can0 1833F583#
(1608242883.824985) can0 1811F582#07000DB30DBB0DB2
(1608242883.826093) can0 1811F582#0A000DBC0DC50DB7
(1608242883.827059) can0 1811F582#0D000DB40DDC0DB9
(1608242883.828070) can0 1811F582#10000DC20D7C0D7C
(1608242883.829042) can0 1811F582#13000DBC0DA10DD1
(1608242883.830084) can0 1811F582#16000DC80DB60DAE
(1608242883.830460) can0 1841F583#00000000
(1608242883.831006) can0 1811F582#19000DA20DB80DD1
(1608242883.832851) can0 1811F582#1C000DB7
(1608242883.833370) can0 1812F582#0100414140414341
(1608242883.833868) can0 1812F582#070040
(1608242883.834827) can0 1813F582#
(1608242883.836054) can0 1815F582#0001000000000000
(1608242883.837009) can0 1816F582#00118111000000
(1608242883.838042) can0 1816F582#0012910D000000
(1608242883.839002) can0 1816F582#00138000000000
(1608242883.839767) can0 1814F582#
(1608242883.840722) can0 183BF4E8#0C01000000000000
(1608242883.842705) can0 183DF4E8#0311811100000000
(1608242883.844711) can0 183DF4E8#0312910D00000000
(1608242883.846720) can0 183DF4E8#0313800000000000
(1608242883.864397) can0 1811F581#01000DBD0DCF0DC7
(1608242883.865459) can0 1811F581#04000DB60DAF0DAB
(1608242883.866401) can0 1811F581#07000DCA0DDB0CCE
(1608242883.867431) can0 1811F581#0A000CEC0CBA0CC3
(1608242883.868408) can0 1811F581#0D000D9B0D940DC5
(1608242883.869419) can0 1811F581#10000DFC0D9B0DA8
(1608242883.870407) can0 1811F581#13000DC70DD50DBE
(1608242883.871415) can0 1811F581#16000DC50DA70DCC
(1608242883.872419) can0 1811F581#19000DA00DBE0DB1
(1608242883.873255) can0 1811F581#1C000DC9
(1608242883.874435) can0 1812F581#0100414143404141
(1608242883.875217) can0 1812F581#070041
(1608242883.876125) can0 1813F581#
(1608242883.877457) can0 1815F581#0001000000000000
(1608242883.878369) can0 1816F581#00118111000000
(1608242883.879415) can0 1816F581#0012910D000000
(1608242883.880371) can0 1816F581#00138000000000
(1608242883.881104) can0 1814F581#
(1608242883.886707) can0 183BF4E8#0801000000000000
(1608242883.888718) can0 183DF4E8#0211811100000000
(1608242883.890710) can0 183DF4E8#0212910D00000000
(1608242883.892718) can0 183DF4E8#0213800000000000
(1608242883.898757) can0 1833F582#
(1608242883.929749) can0 1833F582#
(1608242883.935921) can0 1841F582#00000000
(1608242883.939118) can0 1833F581#
(1608242883.945119) can0 1833F581#
(1608242883.951281) can0 1841F581#00000000
(1608242884.083799) can0 1830E8F4#0800000000000000
(1608242884.092704) can0 1838F4E8#0000000000FFFFFF
(1608242884.129527) can0 1830E8F4#0800000000000000
(1608242884.166691) can0 1838F4E8#0000000000FFFFFF
(1608242884.169807) can0 1830E8F4#0800000000000000
(1608242884.172689) can0 1838F4E8#0000000000FFFFFF
(1608242884.192683) can0 181080F5#FFFF0DA93E80FFFF
(1608242884.194789) can0 183280F5#0100000000000000
(1608242884.196675) can0 1811F580#01000D970DD70DE9
(1608242884.197193) can0 183280F5#0200000000000000
(1608242884.197829) can0 1811F580#04000DCF0DDE0DB0
(1608242884.198659) can0 1811F580#07000DF10DE00DF0
(1608242884.199189) can0 184080F5#0100000000000000
(1608242884.199744) can0 1811F580#0A000DB50DA70DB4
(1608242884.200669) can0 1811F580#0D000DB60DCC0DB9
(1608242884.201670) can0 1811F580#10000DB00DC10DB6
(1608242884.202657) can0 1811F580#13000DA20DE90D4B
(1608242884.203632) can0 1811F580#16000D670D620D76
(1608242884.204630) can0 1811F580#19000CE50CD90CC1
(1608242884.205709) can0 1811F580#1C000CE10DD50DA4
(1608242884.206664) can0 1811F580#1F000DD60DB50DA0
(1608242884.207701) can0 1811F580#22000DA40DEC0DC9
(1608242884.208647) can0 1811F580#25000DB50DAB0DEE
(1608242884.209723) can0 1811F580#28000DC60DBB0DB7
(1608242884.210699) can0 1811F580#2B000DCE0DAE0DBA
(1608242884.211655) can0 1811F580#2E000DC20DA30DC7
(1608242884.212738) can0 1812F580#0100414140404041
(1608242884.213141) can0 181081F5#FFFF0DA93E80FFFF
(1608242884.213790) can0 1812F580#0700424141414140
(1608242884.214309) can0 1813F580#
(1608242884.214919) can0 183281F5#0100000000000000
(1608242884.215647) can0 1815F580#0001000000000000
(1608242884.216645) can0 1816F580#00118111000000
(1608242884.217179) can0 183281F5#0200000000000000
(1608242884.217718) can0 1811F581#01000DBD0DCF0DC6
(1608242884.218252) can0 1816F580#00129111000000
(1608242884.218817) can0 1811F581#04000DB50DAF0DAB
(1608242884.219346) can0 1816F580#0013A111000000
(1608242884.219886) can0 1811F581#07000DCA0DDB0CCE
(1608242884.220499) can0 1811F581#0A000CEC0CBA0CC3
(1608242884.220846) can0 1814F580#
(1608242884.221172) can0 1833F580#
(1608242884.221501) can0 1811F581#0D000D9B0D940DC4
(1608242884.222202) can0 184081F5#0100000000000000
(1608242884.222743) can0 1811F581#10000DFC0D9B0DA8
(1608242884.223323) can0 183BF4E8#0401000000000000
(1608242884.223884) can0 1811F581#13000DC70DD40DBE
(1608242884.224444) can0 1811F581#16000DC50DA70DCC
(1608242884.224991) can0 183DF4E8#01129111000000C6
(1608242884.225549) can0 1811F581#19000DA00DBE0DB1
(1608242884.226126) can0 183DF4E8#0111811100000000
(1608242884.226567) can0 1811F581#1C000DC8
(1608242884.227117) can0 183DF4E8#0113A111000000AB
(1608242884.227694) can0 1812F581#0100414143404141
(1608242884.228206) can0 1812F581#070041
(1608242884.229168) can0 1813F581#
(1608242884.230494) can0 1815F581#0001000000000000
(1608242884.231372) can0 1816F581#00118111000000
(1608242884.232393) can0 1816F581#0012910D000000
(1608242884.233416) can0 1816F581#00138000000000
(1608242884.234159) can0 1814F581#
(1608242884.235392) can0 1833F580#
(1608242884.240136) can0 1833F581#
(1608242884.241522) can0 1841F580#00000000
(1608242884.242697) can0 181082F5#FFFF0DA93E80FFFF
(1608242884.244739) can0 183282F5#0100000000000000
(1608242884.246138) can0 1833F581#
(1608242884.246694) can0 183282F5#0200000000000000
(1608242884.248704) can0 184082F5#0100000000000000
(1608242884.250724) can0 183BF4E8#0801000000000000
(1608242884.251234) can0 1811F582#01000DC90DA60DC5
(1608242884.252031) can0 1811F582#04000DC80DDC0DC4
(1608242884.252386) can0 1841F581#00000000
(1608242884.253068) can0 183DF4E8#0211811100000000
(1608242884.253562) can0 1811F582#07000DB30DBB0DB3
(1608242884.254207) can0 1811F582#0A000DBC0DC40DB6
(1608242884.254675) can0 183DF4E8#0212910D00000000
(1608242884.255232) can0 1811F582#0D000DB50DDC0DB9
(1608242884.256072) can0 1811F582#10000DC20D7C0D7C
(1608242884.256662) can0 183DF4E8#0213800000000000
(1608242884.257228) can0 1811F582#13000DBC0DA00DD1
(1608242884.258043) can0 1811F582#16000DC80DB60DAD
(1608242884.259070) can0 1811F582#19000DA20DB80DD0
(1608242884.259908) can0 1811F582#1C000DB7
(1608242884.261094) can0 1812F582#0100414140414341
(1608242884.261936) can0 1812F582#070040
(1608242884.262752) can0 1813F582#
(1608242884.264175) can0 1815F582#0001000000000000
(1608242884.265031) can0 1816F582#00118111000000
(1608242884.266058) can0 1816F582#0012910D000000
(1608242884.267055) can0 1816F582#00138000000000
(1608242884.267734) can0 1814F582#
(1608242884.268747) can0 183BF4E8#0C01000000000000
(1608242884.269149) can0 1833F582#
(1608242884.269742) can0 1833F582#
(1608242884.270722) can0 183DF4E8#0311811100000000
(1608242884.272671) can0 183DF4E8#0312910D00000000
(1608242884.274681) can0 183DF4E8#0313800000000000
(1608242884.276838) can0 181083F5#FFFF0DA93E80FFFF
(1608242884.278705) can0 183283F5#0100000000000000
(1608242884.280697) can0 183283F5#0200000000000000
(1608242884.282711) can0 184083F5#0100000000000000
(1608242884.295536) can0 1841F582#00000000
(1608242884.306402) can0 1811F583#01000DC30DC90DB4
(1608242884.307405) can0 1811F583#04000DB20CD40CE6
(1608242884.308417) can0 1811F583#07000CD80CC70DCD
(1608242884.309427) can0 1811F583#0A000DA50DBE0DDC
(1608242884.310459) can0 1811F583#0D000DC70D940DDC
(1608242884.311431) can0 1811F583#10000DC00DB20DB3
(1608242884.312416) can0 1811F583#13000DD60DCE0DA7
(1608242884.313422) can0 1811F583#16000DDC0DC30DC9
(1608242884.314392) can0 1811F583#19000DD40DC20DB3
(1608242884.315399) can0 1811F583#1C000DBB0DE20DB0
(1608242884.316413) can0 1811F583#1F000DC40DA00DB5
(1608242884.317419) can0 1811F583#22000DAF0DAD0DEA
(1608242884.318443) can0 1811F583#25000DAC0DB90DC1
(1608242884.319395) can0 1811F583#28000DE20DC80DD7
(1608242884.320408) can0 1811F583#2B000DB70D9E0DC7
(1608242884.321415) can0 1811F583#2E000D970DD90DB1
(1608242884.322410) can0 1812F583#0100414341404041
(1608242884.323407) can0 1812F583#070040404040403F
(1608242884.324106) can0 1813F583#
(1608242884.325423) can0 1815F583#0001000000000000
(1608242884.326361) can0 1816F583#00118111000000
(1608242884.327369) can0 1816F583#00129111000000
(1608242884.328368) can0 1816F583#0013A111000000
(1608242884.328917) can0 183BF4E8#1001000000000000
(1608242884.329280) can0 1814F583#
(1608242884.330096) can0 1833F583#
(1608242884.332667) can0 183DF4E8#0411811100000000
(1608242884.334676) can0 183DF4E8#0412911100000000
(1608242884.336673) can0 183DF4E8#0413A11100000000
(1608242884.344153) can0 1833F583#
(1608242884.350256) can0 1841F583#00000000
(1608242884.374632) can0 183ECCE8#41375F333743433F
(1608242884.376655) can0 183FCCE8#0535002214C33E80
(1608242884.378671) can0 1840CCE8#3E80F9383E803E80
(1608242884.636100) can0 1830E8F4#0800000000000000
(1608242884.640658) can0 1838F4E8#0000000000FFFFFF
(1608242884.675982) can0 1830E8F4#0800000000000000
(1608242884.680655) can0 1838F4E8#0000000000FFFFFF
(1608242884.692623) can0 181080F5#FFFF0DA93E80FFFF
(1608242884.694664) can0 183280F5#0100000000000000
(1608242884.696661) can0 183280F5#0200000000000000
(1608242884.698688) can0 184080F5#0100000000000000
(1608242884.712631) can0 181081F5#FFFF0DA93E80FFFF
(1608242884.714682) can0 183281F5#0100000000000000
(1608242884.716687) can0 183281F5#0200000000000000
(1608242884.717183) can0 1811F580#01000D970DD70DE8
(1608242884.717738) can0 1811F580#04000DCF0DDE0DB0
(1608242884.718675) can0 184081F5#0100000000000000
(1608242884.719181) can0 1811F580#07000DF10DE00DF0
(1608242884.719744) can0 1811F580#0A000DB50DA70DB4
(1608242884.720690) can0 1811F580#0D000DB60DCC0DB9
(1608242884.721712) can0 1811F580#10000DB00DC20DB6
(1608242884.722670) can0 1811F580#13000DA20DE90D4C
(1608242884.723666) can0 1811F580#16000D670D620D76
(1608242884.724416) can0 1811F581#01000DBD0DCF0DC6
(1608242884.724954) can0 1811F580#19000CE50CDA0CC1
(1608242884.725493) can0 1811F581#04000DB50DAF0DAB
(1608242884.726072) can0 1811F580#1C000CE10DD50DA4
(1608242884.726615) can0 1811F581#07000DCA0DDB0CCE
(1608242884.727181) can0 1811F580#1F000DD60DB50DA0
(1608242884.727746) can0 1811F580#22000DA40DEC0DC9
(1608242884.728300) can0 1811F581#0A000CEC0CBA0CC3
(1608242884.728859) can0 1811F580#25000DB60DAB0DEE
(1608242884.729405) can0 1811F581#0D000D9B0D940DC4
(1608242884.729970) can0 1811F580#28000DC60DBB0DB7
(1608242884.730537) can0 1811F581#10000DFB0D9B0DA8
(1608242884.731083) can0 1811F580#2B000DCE0DAE0DBA
(1608242884.731659) can0 1811F580#2E000DC20DA30DC7
(1608242884.732197) can0 1811F581#16000DC50DA70DCC
(1608242884.732749) can0 1811F581#13000DC70DD40DBE
(1608242884.733308) can0 1811F581#19000DA10DBE0DB1
(1608242884.733744) can0 1811F581#1C000DC8
(1608242884.734324) can0 1812F580#01004141403F4041
(1608242884.734909) can0 1812F580#0700424141414140
(1608242884.735458) can0 1812F581#0100414143404141
(1608242884.735815) can0 1812F581#070041
(1608242884.736162) can0 1813F581#
(1608242884.736856) can0 1815F580#0001000000000000
(1608242884.737222) can0 1816F580#00118111000000
(1608242884.737911) can0 1815F581#0001000000000000
(1608242884.738380) can0 1816F580#00129111000000
(1608242884.738905) can0 1816F580#0013A111000000
(1608242884.739263) can0 1813F580#
(1608242884.739595) can0 1814F580#
(1608242884.740026) can0 1816F581#00118111000000
(1608242884.740519) can0 1816F581#0012910D000000
(1608242884.741070) can0 1816F581#00138000000000
(1608242884.741418) can0 1814F581#
(1608242884.741753) can0 1833F580#
(1608242884.742100) can0 1833F581#
(1608242884.742708) can0 181082F5#FFFF0DA93E80FFFF
(1608242884.743150) can0 1833F581#
(1608242884.744319) can0 1841F581#00000000
(1608242884.744875) can0 183282F5#0100000000000000
(1608242884.746652) can0 183282F5#0200000000000000
(1608242884.748666) can0 184082F5#0100000000000000
(1608242884.750674) can0 183BF4E8#0401000000000000
(1608242884.752685) can0 183DF4E8#0111811100000000
(1608242884.754653) can0 183BF4E8#0801000000000000
(1608242884.755052) can0 1833F580#
(1608242884.756666) can0 183DF4E8#0112911100000000
(1608242884.758672) can0 183DF4E8#0113A11100000000
(1608242884.760652) can0 183DF4E8#0211811100000000
(1608242884.761068) can0 1841F580#00000000
(1608242884.762644) can0 183DF4E8#0212910D00000000
(1608242884.764666) can0 183DF4E8#0213800000000000
(1608242884.772633) can0 181083F5#FFFF0DA93E80FFFF
(1608242884.773323) can0 1811F582#01000DC90DA60DC5
(1608242884.774057) can0 1811F582#04000DC80DDC0DC4
(1608242884.774622) can0 183283F5#0100000000000000
(1608242884.775171) can0 1811F582#07000DB30DBB0DB3
(1608242884.776162) can0 1811F582#0A000DBC0DC40DB6
(1608242884.776665) can0 183283F5#0200000000000000
(1608242884.777165) can0 1811F582#0D000DB40DDC0DB9
(1608242884.778182) can0 1811F582#10000DC20D7C0D7C
(1608242884.778663) can0 184083F5#0100000000000000
(1608242884.779185) can0 1811F582#13000DBC0DA00DD1
(1608242884.780040) can0 1811F582#16000DC80DB50DAD
(1608242884.781088) can0 1811F582#19000DA20DB80DD0
(1608242884.781928) can0 1811F582#1C000DB7
(1608242884.783200) can0 1812F582#0100414140414341
(1608242884.783878) can0 1812F582#070040
(1608242884.784794) can0 1813F582#
(1608242884.785377) can0 1811F583#01000DC30DC90DB4
(1608242884.786088) can0 1815F582#0001000000000000
(1608242884.786610) can0 1811F583#04000DB20CD40CE6
(1608242884.787150) can0 1816F582#00118111000000
(1608242884.787688) can0 1811F583#07000CD80CC70DCD
(1608242884.788246) can0 1816F582#0012910D000000
(1608242884.788808) can0 1811F583#0A000DA50DBE0DDC
(1608242884.789330) can0 1816F582#00138000000000
(1608242884.789892) can0 1811F583#0D000DC70D940DDC
(1608242884.790446) can0 1811F583#10000DC00DB20DB3
(1608242884.790801) can0 1814F582#
(1608242884.791137) can0 1833F582#
(1608242884.791602) can0 1811F583#13000DD60DCE0DA7
(1608242884.792451) can0 1811F583#16000DDC0DC30DC8
(1608242884.792978) can0 183BF4E8#0C01000000000000
(1608242884.793516) can0 1811F583#19000DD40DC20DB3
(1608242884.794410) can0 1811F583#1C000DBB0DE20DB0
(1608242884.794974) can0 183DF4E8#03118111000000E6
(1608242884.795526) can0 1811F583#1F000DC40DA00DB5
(1608242884.796423) can0 1811F583#22000DAF0DAD0DEB
(1608242884.796946) can0 183DF4E8#0312910D000000CD
(1608242884.797515) can0 1811F583#25000DAC0DB90DC1
(1608242884.798442) can0 1811F583#28000DE20DC80DD7
(1608242884.798958) can0 183DF4E8#03138000000000DC
(1608242884.799537) can0 1811F583#2B000DB70D9E0DC7
(1608242884.800417) can0 1811F583#2E000D970DD90DB1
(1608242884.801475) can0 1812F583#0100414341404041
(1608242884.802442) can0 1812F583#070040404040403F
(1608242884.802870) can0 1833F582#
(1608242884.803192) can0 1813F583#
(1608242884.804470) can0 1815F583#0001000000000000
(1608242884.805399) can0 1816F583#00118111000000
(1608242884.806412) can0 1816F583#00129111000000
(1608242884.807406) can0 1816F583#0013A111000000
(1608242884.807933) can0 1841F582#00000000
(1608242884.808309) can0 1814F583#
(1608242884.809139) can0 1833F583#
(1608242884.820649) can0 183BF4E8#1001000000000000
(1608242884.822647) can0 183DF4E8#0411811100000000
(1608242884.824193) can0 1833F583#
(1608242884.824686) can0 183DF4E8#0412911100000000
(1608242884.826628) can0 183DF4E8#0413A11100000000
(1608242884.830299) can0 1841F583#00000000
(1608242884.934829) can0 1830E8F4#0800000000000000
(1608242884.940637) can0 1838F4E8#0000000000FFFFFF
(1608242885.142607) can0 1830E8F4#0800000000000000
(1608242885.148622) can0 1838F4E8#0000000000FFFFFF
(1608242885.182514) can0 1830E8F4#0800000000000000
(1608242885.192602) can0 181080F5#FFFF0DA93E80FFFF
(1608242885.194639) can0 183280F5#0100000000000000
(1608242885.195704) can0 1811F580#01000D970DD70DE8
(1608242885.196677) can0 183280F5#0200000000000000
(1608242885.197172) can0 1811F580#04000DCF0DDD0DB0
(1608242885.197707) can0 1811F580#07000DF10DE00DF0
(1608242885.198636) can0 184080F5#0100000000000000
(1608242885.199128) can0 1811F580#0A000DB50DA70DB4
(1608242885.199687) can0 1811F580#0D000DB60DCB0DB9
(1608242885.200743) can0 1811F580#10000DB00DC20DB6
(1608242885.201662) can0 1811F580#13000DA20DE90D4C
(1608242885.202710) can0 1811F580#16000D670D620D76
(1608242885.203692) can0 1811F580#19000CE50CDA0CC1
(1608242885.204687) can0 1811F580#1C000CE10DD50DA4
(1608242885.205785) can0 1811F580#1F000DD60DB50D9F
(1608242885.206604) can0 1838F4E8#0000000000FFFFFF
(1608242885.207237) can0 1811F580#22000DA40DEC0DC9
(1608242885.207708) can0 1811F580#25000DB60DAB0DEE
(1608242885.208690) can0 1811F580#28000DC60DBB0DB8
(1608242885.209701) can0 1811F580#2B000DCE0DAE0DBA
(1608242885.210713) can0 1811F580#2E000DC20DA30DC7
(1608242885.211702) can0 1812F580#01004141403F4041
(1608242885.212643) can0 181081F5#FFFF0DA93E80FFFF
(1608242885.213141) can0 1812F580#0700424141414140
(1608242885.213481) can0 1813F580#
(1608242885.214454) can0 1811F581#01000DBD0DCF0DC7
(1608242885.215026) can0 1815F580#0001000000000000
(1608242885.215619) can0 1811F581#04000DB50DAF0DAB
(1608242885.216117) can0 1816F580#00118111000000
(1608242885.216679) can0 1811F581#07000DCA0DDB0CCE
(1608242885.217202) can0 1816F580#00129111000000
(1608242885.217749) can0 1811F581#0A000CEC0CBA0CC3
(1608242885.218275) can0 1816F580#0013A111000000
(1608242885.218849) can0 1811F581#0D000D9B0D940DC5
(1608242885.219211) can0 1814F580#
(1608242885.219671) can0 1811F581#10000DFB0D9B0DA8
(1608242885.220268) can0 183281F5#0100000000000000
(1608242885.220828) can0 1811F581#13000DC70DD40DBE
(1608242885.221410) can0 183281F5#0200000000000000
(1608242885.221967) can0 1811F581#16000DC50DA70DCC
(1608242885.222548) can0 1811F581#19000DA00DBE0DB1
(1608242885.222904) can0 1833F580#
(1608242885.223398) can0 184081F5#0100000000000000
(1608242885.223829) can0 1811F581#1C000DC8
(1608242885.224481) can0 1812F581#0100414143404141
(1608242885.225294) can0 1812F581#070041
(1608242885.226174) can0 1813F581#
(1608242885.227501) can0 1815F581#0001000000000000
(1608242885.228471) can0 1816F581#00118111000000
(1608242885.229472) can0 1816F581#0012910D000000
(1608242885.230431) can0 1816F581#00138000000000
(1608242885.231143) can0 1814F581#
(1608242885.234400) can0 1833F580#
(1608242885.240572) can0 1841F580#00000000
(1608242885.242607) can0 181082F5#FFFF0DA93E80FFFF
(1608242885.244652) can0 183282F5#0100000000000000
(1608242885.246645) can0 183282F5#0200000000000000
(1608242885.248632) can0 184082F5#0100000000000000
(1608242885.251201) can0 1833F581#
(1608242885.252100) can0 1811F582#01000DC90DA60DC5
(1608242885.253169) can0 1811F582#04000DC80DDC0DC3
(1608242885.254390) can0 1811F582#07000DB30DBB0DB3
(1608242885.255075) can0 1811F582#0A000DBC0DC40DB7
(1608242885.256172) can0 1811F582#0D000DB40DDC0DB9
(1608242885.257119) can0 1811F582#10000DC20D7C0D7C
(1608242885.257501) can0 1833F581#
(1608242885.258109) can0 1811F582#13000DBC0DA10DD1
(1608242885.259105) can0 1811F582#16000DC80DB50DAE
(1608242885.260101) can0 1811F582#19000DA20DB80DD0
(1608242885.260952) can0 1811F582#1C000DB7
(1608242885.262129) can0 1812F582#0100414140414341
(1608242885.262648) can0 183BF4E8#0401000000000000
(1608242885.262974) can0 1812F582#070040
(1608242885.263846) can0 1813F582#
(1608242885.264575) can0 183DF4E8#01118111000000AB
(1608242885.265156) can0 1815F582#0001000000000000
(1608242885.266119) can0 1816F582#00118111000000
(1608242885.266587) can0 183DF4E8#01129111000000CE
(1608242885.267129) can0 1816F582#0012910D000000
(1608242885.268098) can0 1816F582#00138000000000
(1608242885.268610) can0 183DF4E8#0113A111000000C3
(1608242885.268948) can0 1814F582#
(1608242885.269831) can0 1833F582#
(1608242885.270602) can0 183BF4E8#0801000000000000
(1608242885.270949) can0 1833F582#
(1608242885.272660) can0 183DF4E8#0211811100000000
(1608242885.274624) can0 183DF4E8#0212910D00000000
(1608242885.276664) can0 183DF4E8#0213800000000000
(1608242885.278610) can0 183BF4E8#0C01000000000000
(1608242885.280605) can0 183DF4E8#0311811100000000
(1608242885.282619) can0 183DF4E8#0312910D00000000
(1608242885.284702) can0 183DF4E8#0313800000000000
(1608242885.286615) can0 181083F5#FFFF0DA93E80FFFF
(1608242885.287999) can0 1841F582#00000000
(1608242885.288583) can0 183283F5#0100000000000000
(1608242885.290380) can0 1841F581#00000000
(1608242885.290878) can0 183283F5#0200000000000000
(1608242885.292672) can0 184083F5#0100000000000000
(1608242885.305450) can0 1811F583#01000DC30DC80DB4
(1608242885.306496) can0 1811F583#04000DB20CD40CE6
(1608242885.307469) can0 1811F583#07000CD80CC60DCD
(1608242885.308552) can0 1811F583#0A000DA50DBE0DDC
(1608242885.309446) can0 1811F583#0D000DC70D940DDC
(1608242885.310509) can0 1811F583#10000DC00DB20DB3
(1608242885.311509) can0 1811F583#13000DD60DCE0DA7
(1608242885.312469) can0 1811F583#16000DDC0DC30DC8
(1608242885.313468) can0 1811F583#19000DD40DC20DB3
(1608242885.314498) can0 1811F583#1C000DBB0DE30DB0
(1608242885.315441) can0 1811F583#1F000DC40DA00DB5
(1608242885.316468) can0 1811F583#22000DAF0DAD0DEB
(1608242885.317502) can0 1811F583#25000DAC0DB90DC1
(1608242885.318459) can0 1811F583#28000DE20DC80DD7
(1608242885.319456) can0 1811F583#2B000DB60D9E0DC7
(1608242885.320442) can0 1811F583#2E000D970DD90DB1
(1608242885.321458) can0 1812F583#0100414341404041
(1608242885.322471) can0 1812F583#070040404040403F
(1608242885.323146) can0 1813F583#
(1608242885.324488) can0 1815F583#0001000000000000
(1608242885.325444) can0 1816F583#00118111000000
(1608242885.326449) can0 1816F583#00129111000000
(1608242885.327437) can0 1816F583#0013A111000000
(1608242885.328140) can0 1814F583#
(1608242885.329166) can0 1833F583#
(1608242885.340615) can0 183BF4E8#1001000000000000
(1608242885.342610) can0 183DF4E8#0411811100000000
(1608242885.343119) can0 1833F583#
(1608242885.344610) can0 183DF4E8#0412911100000000
(1608242885.346600) can0 183DF4E8#0413A11100000000
(1608242885.349315) can0 1841F583#00000000
(1608242885.502550) can0 183ECCE8#41375E333743433F
(1608242885.504605) can0 183FCCE8#0535002214C33E80
(1608242885.506637) can0 1840CCE8#3E80F9383E803E80
(1608242885.508590) can0 1830CCE8#01013725375E3700
(1608242885.510578) can0 1830CCE8#020436EA3703358B
(1608242885.512606) can0 1830CCE8#03073361370436F8
(1608242885.514603) can0 1830CCE8#040A371536EF36E6
(1608242885.516592) can0 1830CCE8#050D370836FF3337
(1608242885.518572) can0 1830CCE8#061036EF36DE36F6
(1608242885.520591) can0 1830CCE8#071336D736FC370D
(1608242885.522581) can0 1830CCE8#081636EA370B3655
(1608242885.524560) can0 1830CCE8#091936FC36E136F1
(1608242885.526580) can0 1830CCE8#0A1C3358370C36F7
(1608242885.528588) can0 1830CCE8#0B1F3709370E3704
(1608242885.530575) can0 1830CCE8#0C2236F736FC3708
(1608242885.532589) can0 1830CCE8#0D2536F336E80000
(1608242885.534577) can0 1831CCE8#01014141403F4041
(1608242885.536592) can0 1831CCE8#0207424141414140
(1608242885.538550) can0 1831CCE8#030D414143404141
(1608242885.540574) can0 1831CCE8#0413414141404143
(1608242885.542552) can0 1831CCE8#0519414041434140
(1608242885.544561) can0 1831CCE8#061F404140404040
(1608242885.546590) can0 1831CCE8#0725403FFFFFFFFF
(1608242885.548568) can0 1834CCE8#0105050400474143
(1608242885.550580) can0 1834CCE8#023E803E803E8035
(1608242885.552552) can0 1834CCE8#0314C3000300F064
(1608242885.554546) can0 1834CCE8#043E803E58470664
(1608242885.556545) can0 1834CCE8#0500C71A06260217
(1608242885.558601) can0 1834CCE8#0641FF000000FF00
(1608242885.560567) can0 1838CCE8#0000FF22FFFFFFFF
(1608242885.562596) can0 183DCCE8#0100000000000000
(1608242885.564611) can0 183DCCE8#02000000FFFFFFFF
(1608242885.566567) can0 1840CCE8#3E80F9383E803E80
(1608242885.649457) can0 1830E8F4#0800000000000000
(1608242885.656592) can0 1838F4E8#0000000000FFFFFF
(1608242885.689160) can0 1830E8F4#0800000000000000
(1608242885.690636) can0 1838F4E8#0000000000FFFFFF
(1608242885.692594) can0 181080F5#FFFF0DA93E80FFFF
(1608242885.694596) can0 183280F5#0100000000000000
(1608242885.696575) can0 183280F5#0200000000000000
(1608242885.698578) can0 184080F5#0100000000000000
(1608242885.712566) can0 181081F5#FFFF0DA93E80FFFF
(1608242885.714601) can0 183281F5#0100000000000000
(1608242885.715728) can0 1811F580#01000D970DD70DE8
(1608242885.716619) can0 183281F5#0200000000000000
(1608242885.717108) can0 1811F580#04000DCF0DDD0DB0
(1608242885.717686) can0 1811F580#07000DF10DE00DF0
(1608242885.718583) can0 184081F5#0100000000000000
(1608242885.719105) can0 1811F580#0A000DB50DA70DB4
(1608242885.719661) can0 1811F580#0D000DB60DCB0DB9
(1608242885.720728) can0 1811F580#10000DB00DC20DB6
(1608242885.721704) can0 1811F580#13000DA20DE90D4C
(1608242885.722715) can0 1811F580#16000D670D620D77
(1608242885.723714) can0 1811F580#19000CE50CD90CC1
(1608242885.724723) can0 1811F580#1C000CE10DD40DA4
(1608242885.725750) can0 1811F580#1F000DD60DB50DA0
(1608242885.726703) can0 1811F580#22000DA40DEC0DC9
(1608242885.727710) can0 1811F580#25000DB50DAB0DED
(1608242885.728750) can0 1811F580#28000DC60DBB0DB8
(1608242885.729705) can0 1811F580#2B000DCE0DAE0DBA
(1608242885.730454) can0 1811F581#01000DBD0DCF0DC7
(1608242885.730993) can0 1811F580#2E000DC20DA30DC7
(1608242885.731563) can0 1811F581#04000DB60DAF0DAB
(1608242885.732135) can0 1812F580#01004141403F4041
(1608242885.732699) can0 1811F581#07000DCA0DDC0CCE
(1608242885.733251) can0 1812F580#0700424141414140
(1608242885.733845) can0 1811F581#0A000CEC0CBA0CC3
(1608242885.734257) can0 1813F580#
(1608242885.734725) can0 1811F581#0D000D9B0D940DC5
(1608242885.735227) can0 1815F580#0001000000000000
(1608242885.735800) can0 1811F581#10000DFC0D9B0DA8
(1608242885.736329) can0 1816F580#00118111000000
(1608242885.736880) can0 1811F581#13000DC70DD50DBD
(1608242885.737435) can0 1816F580#00129111000000
(1608242885.737989) can0 1811F581#16000DC50DA70DCC
(1608242885.738647) can0 1811F581#19000DA00DBE0DB1
(1608242885.738990) can0 1814F580#
(1608242885.739310) can0 1816F580#0013A111000000
(1608242885.739769) can0 1811F581#1C000DC9
(1608242885.740109) can0 1833F580#
(1608242885.740679) can0 1812F581#0100414143404141
(1608242885.741297) can0 1812F581#070041
(1608242885.742176) can0 1813F581#
(1608242885.742758) can0 181082F5#FFFF0DA93E80FFFF
(1608242885.743469) can0 1815F581#0001000000000000
(1608242885.744437) can0 1816F581#00118111000000
(1608242885.745008) can0 183282F5#0100000000000000
(1608242885.745535) can0 1816F581#0012910D000000
(1608242885.746464) can0 1816F581#00138000000000
(1608242885.747033) can0 183282F5#0200000000000000
(1608242885.747365) can0 1814F581#
(1608242885.748185) can0 1833F581#
(1608242885.748762) can0 184082F5#0100000000000000
(1608242885.749126) can0 1833F581#
(1608242885.754434) can0 1833F580#
(1608242885.756620) can0 183BF4E8#0401000000000000
(1608242885.758615) can0 183DF4E8#01118111000000A8
(1608242885.759589) can0 1841F580#00000000
(1608242885.760581) can0 183DF4E8#01129111000000BD
(1608242885.762642) can0 183DF4E8#0113A111000000B1
(1608242885.764600) can0 183BF4E8#0801000000000000
(1608242885.765103) can0 1811F582#01000DC90DA60DC5
(1608242885.766155) can0 1811F582#04000DC90DDC0DC3
(1608242885.766662) can0 183DF4E8#0211811100000000
(1608242885.767213) can0 1811F582#07000DB30DBB0DB2
(1608242885.768150) can0 1811F582#0A000DBC0DC50DB7
(1608242885.768721) can0 183DF4E8#0212910D00000000
(1608242885.769224) can0 1811F582#0D000DB40DDC0DB9
(1608242885.770179) can0 1811F582#10000DC20D7C0D7C
(1608242885.770677) can0 183DF4E8#0213800000000000
(1608242885.771246) can0 1811F582#13000DBC0DA00DD1
(1608242885.772230) can0 1811F582#16000DC80DB50DAE
(1608242885.772592) can0 181083F5#FFFF0DA93E80FFFF
(1608242885.773238) can0 1811F582#19000DA20DB90DD0
(1608242885.774028) can0 1811F582#1C000DB7
(1608242885.774415) can0 1841F581#00000000
(1608242885.774994) can0 183283F5#0100000000000000
(1608242885.775551) can0 1812F582#0100414140414341
(1608242885.775900) can0 1812F582#070040
(1608242885.776586) can0 183283F5#0200000000000000
(1608242885.776940) can0 1813F582#
(1608242885.778169) can0 1815F582#0001000000000000
(1608242885.778714) can0 184083F5#0100000000000000
(1608242885.779280) can0 1816F582#00118111000000
(1608242885.780218) can0 1816F582#0012910D000000
(1608242885.780686) can0 183BF4E8#0C01000000000000
(1608242885.781229) can0 1816F582#00138000000000
(1608242885.781820) can0 1814F582#
(1608242885.782856) can0 1833F582#
(1608242885.783853) can0 1833F582#
(1608242885.784543) can0 183DF4E8#0311811100000000
(1608242885.785001) can0 1841F582#00000000
(1608242885.785653) can0 1811F583#01000DC40DC80DB4
(1608242885.786474) can0 1811F583#04000DB20CD40CE6
(1608242885.787034) can0 183DF4E8#0312910D00000000
(1608242885.787611) can0 1811F583#07000CD80CC60DCD
(1608242885.788494) can0 1811F583#0A000DA50DBE0DDC
(1608242885.789033) can0 183DF4E8#0313800000000000
(1608242885.789578) can0 1811F583#0D000DC70D940DDC
(1608242885.790498) can0 1811F583#10000DC00DB20DB3
(1608242885.791510) can0 1811F583#13000DD60DCE0DA7
(1608242885.792481) can0 1811F583#16000DDC0DC30DC9
(1608242885.793459) can0 1811F583#19000DD40DC20DB3
(1608242885.794477) can0 1811F583#1C000DBB0DE30DB0
(1608242885.795474) can0 1811F583#1F000DC40DA00DB5
(1608242885.796533) can0 1811F583#22000DAF0DAD0DEB
(1608242885.797470) can0 1811F583#25000DAC0DB90DC1
(1608242885.798492) can0 1811F583#28000DE20DC80DD7
(1608242885.799470) can0 1811F583#2B000DB70D9E0DC7
(1608242885.800465) can0 1811F583#2E000D970DD90DB1
(1608242885.801486) can0 1812F583#0100414341404041
(1608242885.802468) can0 1812F583#070040404040403F
(1608242885.803158) can0 1813F583#
(1608242885.804530) can0 1815F583#0001000000000000
(1608242885.805422) can0 1816F583#00118111000000
(1608242885.806472) can0 1816F583#00129111000000
(1608242885.807457) can0 1816F583#0013A111000000
(1608242885.808234) can0 1814F583#
(1608242885.809196) can0 1833F583#
(1608242885.823176) can0 1833F583#
(1608242885.828574) can0 183BF4E8#1001000000000000
(1608242885.829324) can0 1841F583#00000000
(1608242885.830577) can0 183DF4E8#0411811100000000
(1608242885.832565) can0 183DF4E8#0412911100000000
(1608242885.834567) can0 183DF4E8#0413A11100000000
(1608242886.156052) can0 1830E8F4#0800000000000000
(1608242886.172555) can0 1838F4E8#0000000000FFFFFF
(1608242886.192526) can0 181080F5#FFFF0DA93E80FFFF
(1608242886.194555) can0 183280F5#0100000000000000
(1608242886.195767) can0 1811F580#01000D970DD70DE8
(1608242886.196359) can0 1830E8F4#0800000000000000
(1608242886.196911) can0 1811F580#04000DCF0DDD0DB0
(1608242886.197507) can0 183280F5#0200000000000000
(1608242886.198062) can0 1811F580#07000DF20DE00DF0
(1608242886.198652) can0 184080F5#0100000000000000
(1608242886.199191) can0 1811F580#0A000DB50DA70DB4
(1608242886.199766) can0 1811F580#0D000DB60DCC0DB9
(1608242886.200554) can0 1838F4E8#0000000000FFFFFF
(1608242886.201097) can0 1811F580#10000DB00DC20DB6
(1608242886.201690) can0 1811F580#13000DA20DE90D4C
(1608242886.202766) can0 1811F580#16000D660D620D77
(1608242886.203775) can0 1811F580#19000CE40CD90CC1
(1608242886.204745) can0 1811F580#1C000CE10DD40DA4
(1608242886.205761) can0 1811F580#1F000DD60DB50DA0
(1608242886.206752) can0 1811F580#22000DA40DEC0DC9
(1608242886.207756) can0 1811F580#25000DB50DAB0DED
(1608242886.208755) can0 1811F580#28000DC60DBB0DB8
(1608242886.209757) can0 1811F580#2B000DCE0DAE0DBA
(1608242886.210784) can0 1811F580#2E000DC20DA30DC7
(1608242886.211775) can0 1812F580#01004141403F4041
(1608242886.212517) can0 181081F5#FFFF0DA93E80FFFF
(1608242886.213075) can0 1812F580#0700424141414140
(1608242886.213449) can0 1813F580#
(1608242886.214576) can0 183281F5#0100000000000000
(1608242886.215123) can0 1815F580#0001000000000000
(1608242886.215681) can0 1811F581#01000DBD0DCF0DC7
(1608242886.216213) can0 1816F580#00118111000000
(1608242886.216773) can0 1811F581#04000DB60DAF0DAB
(1608242886.217293) can0 1816F580#00129111000000
(1608242886.217854) can0 1811F581#07000DCA0DDC0CCE
(1608242886.218374) can0 1816F580#0013A111000000
(1608242886.218962) can0 1811F581#0A000CEC0CBA0CC3
(1608242886.219533) can0 1811F581#0D000D9B0D940DC5
(1608242886.220094) can0 183281F5#0200000000000000
(1608242886.220666) can0 1811F581#10000DFC0D9B0DA7
(1608242886.221009) can0 1833F580#
(1608242886.221480) can0 1811F581#13000DC70DD50DBE
(1608242886.221828) can0 1814F580#
(1608242886.222379) can0 184081F5#0100000000000000
(1608242886.222912) can0 1811F581#16000DC50DA70DCC
(1608242886.223514) can0 1811F581#19000DA00DBE0DB1
(1608242886.224378) can0 1811F581#1C000DC9
(1608242886.226177) can0 1812F581#0100414143404141
(1608242886.226621) can0 1812F581#070041
(1608242886.227206) can0 1813F581#
(1608242886.228532) can0 1815F581#0001000000000000
(1608242886.229494) can0 1816F581#00118111000000
(1608242886.230491) can0 1816F581#0012910D000000
(1608242886.231535) can0 1816F581#00138000000000
(1608242886.232363) can0 1814F581#
(1608242886.233250) can0 1833F581#
(1608242886.233623) can0 1833F580#
(1608242886.239613) can0 1841F580#00000000
(1608242886.242556) can0 183BF4E8#0401000000000000
(1608242886.244531) can0 183DF4E8#01118111000000C7
(1608242886.246550) can0 183DF4E8#01129111000000AB
(1608242886.248543) can0 181082F5#FFFF0DA93E80FFFF
(1608242886.250169) can0 1811F582#01000DC90DA60DC5
(1608242886.250699) can0 183282F5#0100000000000000
(1608242886.251258) can0 1811F582#04000DC90DDC0DC4
(1608242886.252126) can0 1811F582#07000DB30DBB0DB2
(1608242886.252723) can0 183282F5#0200000000000000
(1608242886.253251) can0 1811F582#0A000DBC0DC40DB7
(1608242886.253616) can0 1833F581#
(1608242886.254198) can0 1811F582#0D000DB40DDC0DB9
(1608242886.254694) can0 184082F5#0100000000000000
(1608242886.255298) can0 1811F582#10000DC20D7C0D7C
(1608242886.256172) can0 1811F582#13000DBD0DA00DD1
(1608242886.256720) can0 183DF4E8#0113A111000000CE
(1608242886.257237) can0 1811F582#16000DC80DB50DAE
(1608242886.258177) can0 1811F582#19000DA20DB80DD0
(1608242886.258716) can0 183BF4E8#0801000000000000
(1608242886.259072) can0 1811F582#1C000DB8
(1608242886.259582) can0 1841F581#00000000
(1608242886.260147) can0 1812F582#0100414140414341
(1608242886.260760) can0 183DF4E8#0211811100000000
(1608242886.261169) can0 1812F582#070040
(1608242886.261882) can0 1813F582#
(1608242886.262503) can0 183DF4E8#0212910D00000000
(1608242886.263176) can0 1815F582#0001000000000000
(1608242886.264238) can0 1816F582#00118111000000
(1608242886.264653) can0 183DF4E8#0213800000000000
(1608242886.265224) can0 1816F582#0012910D000000
(1608242886.266167) can0 1816F582#00138000000000
(1608242886.266865) can0 1814F582#
(1608242886.267868) can0 1833F582#
(1608242886.268859) can0 1833F582#
(1608242886.272527) can0 181083F5#FFFF0DA93E80FFFF
(1608242886.274582) can0 183283F5#0100000000000000
(1608242886.276552) can0 183283F5#0200000000000000
(1608242886.278556) can0 184083F5#0100000000000000
(1608242886.280541) can0 183BF4E8#0C01000000000000
(1608242886.282536) can0 183DF4E8#0311811100000000
(1608242886.284544) can0 183DF4E8#0312910D00000000
(1608242886.286565) can0 183DF4E8#0313800000000000
(1608242886.293030) can0 1841F582#00000000
(1608242886.302491) can0 1811F583#01000DC30DC80DB4
(1608242886.303500) can0 1811F583#04000DB20CD40CE6
(1608242886.304503) can0 1811F583#07000CD80CC60DCD
(1608242886.305520) can0 1811F583#0A000DA50DBE0DDC
(1608242886.306478) can0 1811F583#0D000DC70D940DDC
(1608242886.307496) can0 1811F583#10000DC00DB20DB3
(1608242886.308499) can0 1811F583#13000DD60DCE0DA7
(1608242886.309486) can0 1811F583#16000DDC0DC30DC8
(1608242886.310521) can0 1811F583#19000DD40DC20DB3
(1608242886.311477) can0 1811F583#1C000DBB0DE30DB0
(1608242886.312501) can0 1811F583#1F000DC40DA00DB5
(1608242886.313497) can0 1811F583#22000DAF0DAD0DEA
(1608242886.314513) can0 1811F583#25000DAC0DB90DC1
(1608242886.315515) can0 1811F583#28000DE20DC80DD7
(1608242886.316505) can0 1811F583#2B000DB70D9E0DC7
(1608242886.317510) can0 1811F583#2E000D970DD90DB1
(1608242886.318533) can0 1812F583#0100414341404041
(1608242886.319486) can0 1812F583#070040404040403F
(1608242886.320188) can0 1813F583#
(1608242886.321529) can0 1815F583#0001000000000000
(1608242886.322469) can0 1816F583#00118111000000
(1608242886.323477) can0 1816F583#00129111000000
(1608242886.324457) can0 1816F583#0013A111000000
(1608242886.325218) can0 1814F583#
(1608242886.328677) can0 1833F583#
(1608242886.329006) can0 1833F583#
(1608242886.329537) can0 183BF4E8#1001000000000000
(1608242886.330539) can0 183DF4E8#0411811100000000
(1608242886.332570) can0 183DF4E8#0412911100000000
(1608242886.334530) can0 183DF4E8#0413A11100000000
(1608242886.346353) can0 1841F583#00000000
(1608242886.608489) can0 183ECCE8#41375F333743433F
(1608242886.610504) can0 183FCCE8#0535002214C33E80
(1608242886.612591) can0 1840CCE8#3E80F9383E803E80
(1608242886.662619) can0 1830E8F4#0800000000000000
(1608242886.672516) can0 1838F4E8#0000000000FFFFFF
(1608242886.692486) can0 181080F5#FFFF0DA93E80FFFF
(1608242886.694510) can0 183280F5#0100000000000000
(1608242886.696509) can0 183280F5#0200000000000000
(1608242886.698512) can0 184080F5#0100000000000000
(1608242886.703055) can0 1830E8F4#0800000000000000
(1608242886.710508) can0 1838F4E8#0000000000FFFFFF
(1608242886.712512) can0 181081F5#FFFF0DA93E80FFFF
(1608242886.713042) can0 1811F580#01000D970DD70DE9
(1608242886.713733) can0 1811F580#04000DCF0DDD0DB0
(1608242886.714509) can0 183281F5#0100000000000000
(1608242886.715086) can0 1811F580#07000DF20DE00DF0
(1608242886.715729) can0 1811F580#0A000DB50DA70DB4
(1608242886.716533) can0 183281F5#0200000000000000
(1608242886.717093) can0 1811F580#0D000DB60DCC0DB9
(1608242886.717741) can0 1811F580#10000DB00DC20DB6
(1608242886.718537) can0 184081F5#0100000000000000
(1608242886.719066) can0 1811F580#13000DA20DE90D4C
(1608242886.719735) can0 1811F580#16000D660D620D77
(1608242886.720762) can0 1811F580#19000CE50CD90CC1
(1608242886.721754) can0 1811F580#1C000CE10DD40DA4
(1608242886.722813) can0 1811F580#1F000DD60DB50DA0
(1608242886.723750) can0 1811F580#22000DA40DEC0DC9
(1608242886.724748) can0 1811F580#25000DB50DAB0DED
(1608242886.725767) can0 1811F580#28000DC60DBB0DB8
(1608242886.726771) can0 1811F580#2B000DCE0DAE0DBA
(1608242886.727753) can0 1811F580#2E000DC20DA30DC7
(1608242886.728784) can0 1812F580#01004141403F4041
(1608242886.729767) can0 1812F580#0700424141414140
(1608242886.730437) can0 1813F580#
(1608242886.731825) can0 1815F580#0001000000000000
(1608242886.732740) can0 1816F580#00118111000000
(1608242886.733763) can0 1816F580#00129111000000
(1608242886.734770) can0 1816F580#0013A111000000
(1608242886.735442) can0 1814F580#
(1608242886.736496) can0 1833F580#
(1608242886.737498) can0 1833F580#
(1608242886.742493) can0 181082F5#FFFF0DA93E80FFFF
(1608242886.744523) can0 183282F5#0100000000000000
(1608242886.746508) can0 183282F5#0200000000000000
(1608242886.748522) can0 184082F5#0100000000000000
(1608242886.750519) can0 183BF4E8#0401000000000000
(1608242886.752518) can0 183DF4E8#0111811100000000
(1608242886.754511) can0 183DF4E8#0112911100000000
(1608242886.756518) can0 183DF4E8#0113A11100000000
(1608242886.756922) can0 1841F580#00000000
(1608242886.772488) can0 181083F5#FFFF0DA93E80FFFF
(1608242886.774534) can0 183283F5#0100000000000000
(1608242886.776519) can0 183283F5#0200000000000000
(1608242886.778524) can0 184083F5#0100000000000000
(1608242886.783522) can0 1811F583#01000DC30DC80DB4
(1608242886.784532) can0 1811F583#04000DB20CD40CE6
(1608242886.785559) can0 1811F583#07000CD80CC60DCD
(1608242886.786529) can0 1811F583#0A000DA50DBE0DDC
(1608242886.787515) can0 1811F583#0D000DC70D940DDC
(1608242886.788622) can0 1811F583#10000DC00DB20DB2
(1608242886.789575) can0 1811F583#13000DD60DCE0DA7
(1608242886.790543) can0 1811F583#16000DDC0DC30DC8
(1608242886.791529) can0 1811F583#19000DD40DC20DB4
(1608242886.792533) can0 1811F583#1C000DBB0DE20DB0
(1608242886.793531) can0 1811F583#1F000DC40DA00DB5
(1608242886.794510) can0 1811F583#22000DAF0DAD0DEA
(1608242886.795543) can0 1811F583#25000DAC0DB90DC1
(1608242886.796532) can0 1811F583#28000DE20DC80DD7
(1608242886.797530) can0 1811F583#2B000DB70D9E0DC7
(1608242886.798520) can0 1811F583#2E000D970DD90DB1
(1608242886.799524) can0 1812F583#0100414341404041
(1608242886.800536) can0 1812F583#070040404040403F
(1608242886.801219) can0 1813F583#
(1608242886.802562) can0 1815F583#0001000000000000
(1608242886.803509) can0 1816F583#00118111000000
(1608242886.804500) can0 1816F583#00129111000000
(1608242886.805525) can0 1816F583#0013A111000000
(1608242886.806213) can0 1814F583#
(1608242886.807232) can0 1833F583#
(1608242886.812514) can0 183BF4E8#1001000000000000
(1608242886.814509) can0 183DF4E8#0411811100000000
(1608242886.816504) can0 183DF4E8#0412911100000000
(1608242886.818498) can0 183DF4E8#0413A11100000000
(1608242886.822229) can0 1833F583#
(1608242886.824242) can0 1811F582#01000DC90DA60DC5
(1608242886.825174) can0 1811F582#04000DC90DDC0DC4
(1608242886.826192) can0 1811F582#07000DB30DBB0DB3
(1608242886.827202) can0 1811F582#0A000DBC0DC40DB7
(1608242886.828205) can0 1811F582#0D000DB40DDC0DB9
(1608242886.828572) can0 1841F583#00000000
(1608242886.829186) can0 1811F582#10000DC20D7C0D7C
(1608242886.830174) can0 1811F582#13000DBC0DA10DD1
(1608242886.831207) can0 1811F582#16000DC80DB50DAE
(1608242886.832176) can0 1811F582#19000DA20DB80DD1
(1608242886.833069) can0 1811F582#1C000DB7
(1608242886.834277) can0 1812F582#0100414140414341
(1608242886.834983) can0 1812F582#070040
(1608242886.835907) can0 1813F582#
(1608242886.837221) can0 1815F582#0001000000000000
(1608242886.838153) can0 1816F582#00118111000000
(1608242886.839156) can0 1816F582#0012910D000000
(1608242886.840167) can0 1816F582#00138000000000
(1608242886.840876) can0 1814F582#
(1608242886.864491) can0 183BF4E8#0C01000000000000
(1608242886.866500) can0 183DF4E8#0311811100000000
(1608242886.866999) can0 1811F581#01000DBD0DCF0DC7
(1608242886.867581) can0 1811F581#04000DB60DAF0DAB
(1608242886.868504) can0 183DF4E8#0312910D00000000
(1608242886.869023) can0 1811F581#07000DCA0DDC0CCE
(1608242886.869581) can0 1811F581#0A000CEC0CBA0CC3
(1608242886.870522) can0 183DF4E8#0313800000000000
(1608242886.871031) can0 1811F581#0D000D9B0D940DC5
(1608242886.871602) can0 1811F581#10000DFC0D9B0DA8
(1608242886.872518) can0 1811F581#13000DC70DD50DBE
(1608242886.873515) can0 1811F581#16000DC50DA70DCC
(1608242886.874540) can0 1811F581#19000DA00DBE0DB1
(1608242886.875397) can0 1811F581#1C000DC8
(1608242886.876573) can0 1812F581#0100414143404141
(1608242886.877377) can0 1812F581#070041
(1608242886.878241) can0 1813F581#
(1608242886.879594) can0 1815F581#0001000000000000
(1608242886.880528) can0 1816F581#00118111000000
(1608242886.881534) can0 1816F581#0012910D000000
(1608242886.882538) can0 1816F581#00138000000000
(1608242886.883213) can0 1814F581#
(1608242886.884505) can0 183BF4E8#0801000000000000
(1608242886.886512) can0 183DF4E8#0211811100000000
(1608242886.888501) can0 183DF4E8#0212910D00000000
(1608242886.899900) can0 1833F582#
(1608242886.930901) can0 1833F582#
(1608242886.932505) can0 183DF4E8#0213800000000000
(1608242886.937055) can0 1841F582#00000000
(1608242886.941244) can0 1833F581#
(1608242886.947242) can0 1833F581#
(1608242886.953393) can0 1841F581#00000000
(1608242887.169255) can0 1830E8F4#0800000000000000
(1608242887.176477) can0 1838F4E8#0000000000FFFFFF
(1608242887.192449) can0 181080F5#FFFF0DA93E80FFFF
(1608242887.194480) can0 183280F5#0100000000000000
(1608242887.195040) can0 1811F580#01000D970DD70DE9
(1608242887.195769) can0 1811F580#04000DD00DDD0DB0
(1608242887.196477) can0 183280F5#0200000000000000
(1608242887.197056) can0 1811F580#07000DF10DE00DF0
(1608242887.197756) can0 1811F580#0A000DB50DA70DB4
(1608242887.198472) can0 184080F5#0100000000000000
(1608242887.199015) can0 1811F580#0D000DB60DCC0DB9
(1608242887.199783) can0 1811F580#10000DB10DC10DB6
(1608242887.200834) can0 1811F580#13000DA20DE90D4B
(1608242887.201791) can0 1811F580#16000D660D620D77
(1608242887.202816) can0 1811F580#19000CE50CDA0CC1
(1608242887.203823) can0 1811F580#1C000CE10DD40DA4
(1608242887.204800) can0 1811F580#1F000DD60DB50D9F
(1608242887.205791) can0 1811F580#22000DA40DEC0DC9
(1608242887.206753) can0 1811F580#25000DB60DAB0DEE
(1608242887.207820) can0 1811F580#28000DC60DBB0DB8
(1608242887.208867) can0 1811F580#2B000DCE0DAE0DBA
(1608242887.209276) can0 1830E8F4#0800000000000000
(1608242887.209885) can0 1811F580#2E000DC20DA30DC7
(1608242887.210783) can0 1812F580#0100414140404041
(1608242887.211800) can0 1812F580#0700424141414140
(1608242887.212460) can0 181081F5#FFFF0DA93E80FFFF
(1608242887.212827) can0 1813F580#
(1608242887.213824) can0 1815F580#0001000000000000
(1608242887.214469) can0 183281F5#0100000000000000
(1608242887.214992) can0 1816F580#00118111000000
(1608242887.215753) can0 1816F580#00129111000000
(1608242887.216483) can0 183281F5#0200000000000000
(1608242887.216973) can0 1816F580#0013A111000000
(1608242887.217451) can0 1814F580#
(1608242887.218489) can0 184081F5#0100000000000000
(1608242887.218875) can0 1833F580#
(1608242887.219578) can0 1811F581#01000DBD0DCF0DC6
(1608242887.220498) can0 1838F4E8#0000000000FFFFFF
(1608242887.221007) can0 1811F581#04000DB50DAF0DAB
(1608242887.221567) can0 1811F581#07000DCA0DDC0CCE
(1608242887.222463) can0 183BF4E8#0401000000000000
(1608242887.223028) can0 1811F581#0A000CEC0CBA0CC2
(1608242887.223591) can0 1811F581#0D000D9B0D940DC4
(1608242887.224497) can0 183DF4E8#0111811100000000
(1608242887.224999) can0 1811F581#10000DFB0D9B0DA8
(1608242887.225570) can0 1811F581#13000DC70DD40DBE
(1608242887.226479) can0 183DF4E8#0112911100000000
(1608242887.226981) can0 1811F581#16000DC50DA70DCC
(1608242887.227562) can0 1811F581#19000DA00DBE0DB1
(1608242887.228498) can0 183DF4E8#0113A11100000000
(1608242887.228911) can0 1811F581#1C000DC8
(1608242887.229540) can0 1812F581#0100414143404141
(1608242887.230377) can0 1812F581#070041
(1608242887.231262) can0 1813F581#
(1608242887.232614) can0 1815F581#0001000000000000
(1608242887.232996) can0 1833F580#
(1608242887.233474) can0 1816F581#00118111000000
(1608242887.234500) can0 1816F581#0012910D000000
(1608242887.235510) can0 1816F581#00138000000000
(1608242887.236478) can0 183BF4E8#0801000000000000
(1608242887.236845) can0 1814F581#
(1608242887.238468) can0 183DF4E8#0211811100000000
(1608242887.238818) can0 1841F580#00000000
(1608242887.240555) can0 183DF4E8#0212910D00000000
(1608242887.242541) can0 183DF4E8#0213800000000000
(1608242887.242943) can0 1833F581#
(1608242887.245658) can0 181082F5#FFFF0DA93E80FFFF
(1608242887.246485) can0 183282F5#0100000000000000
(1608242887.248486) can0 183282F5#0200000000000000
(1608242887.248862) can0 1833F581#
(1608242887.250502) can0 184082F5#0100000000000000
(1608242887.252219) can0 1811F582#01000DC90DA60DC5
(1608242887.253224) can0 1811F582#04000DC80DDC0DC4
(1608242887.254256) can0 1811F582#07000DB30DBB0DB3
(1608242887.254649) can0 1841F581#00000000
(1608242887.255179) can0 1811F582#0A000DBC0DC40DB6
(1608242887.256210) can0 1811F582#0D000DB40DDC0DB9
(1608242887.257250) can0 1811F582#10000DC20D7C0D7C
(1608242887.258227) can0 1811F582#13000DBC0DA00DD1
(1608242887.259192) can0 1811F582#16000DC80DB50DAE
(1608242887.260217) can0 1811F582#19000DA20DB80DD0
(1608242887.261087) can0 1811F582#1C000DB7
(1608242887.262228) can0 1812F582#0100414140414341
(1608242887.263039) can0 1812F582#070040
(1608242887.263935) can0 1813F582#
(1608242887.265250) can0 1815F582#0001000000000000
(1608242887.266200) can0 1816F582#00118111000000
(1608242887.267188) can0 1816F582#0012910D000000
(1608242887.268257) can0 1816F582#00138000000000
(1608242887.268904) can0 1814F582#
(1608242887.269953) can0 1833F582#
(1608242887.270951) can0 1833F582#
(1608242887.272471) can0 181083F5#FFFF0DA93E80FFFF
(1608242887.274492) can0 183283F5#0100000000000000
(1608242887.275560) can0 1811F583#01000DC30DC80DB4
(1608242887.276508) can0 183283F5#0200000000000000
(1608242887.277006) can0 1811F583#04000DB20CD40CE6
(1608242887.277552) can0 1811F583#07000CD80CC70DCD
(1608242887.278470) can0 184083F5#0100000000000000
(1608242887.278997) can0 1811F583#0A000DA50DBE0DDC
(1608242887.279576) can0 1811F583#0D000DC70D940DDC
(1608242887.280574) can0 1811F583#10000DC00DB20DB3
(1608242887.281557) can0 1811F583#13000DD60DCE0DA7
(1608242887.282483) can0 183BF4E8#0C01000000000000
(1608242887.282990) can0 1811F583#16000DDC0DC30DC9
(1608242887.283550) can0 1811F583#19000DD40DC20DB4
(1608242887.284479) can0 183DF4E8#0311811100000000
(1608242887.284975) can0 1811F583#1C000DBB0DE20DB0
(1608242887.285545) can0 1811F583#1F000DC40DA00DB5
(1608242887.286438) can0 183DF4E8#0312910D00000000
(1608242887.286971) can0 1811F583#22000DAF0DAD0DEB
(1608242887.287524) can0 1811F583#25000DAC0DB90DC1
(1608242887.288457) can0 183DF4E8#0313800000000000
(1608242887.289004) can0 1811F583#28000DE20DC80DD7
(1608242887.289560) can0 1811F583#2B000DB70D9E0DC7
(1608242887.290561) can0 1811F583#2E000D970DD90DB1
(1608242887.291569) can0 1812F583#0100414341404041
(1608242887.292584) can0 1812F583#070040404040403F
(1608242887.293265) can0 1813F583#
(1608242887.294606) can0 1815F583#0001000000000000
(1608242887.295499) can0 1816F583#00118111000000
(1608242887.296048) can0 1841F582#00000000
(1608242887.296587) can0 1816F583#00129111000000
(1608242887.297159) can0 183BF4E8#1001000000000000
(1608242887.297677) can0 1816F583#0013A111000000
(1608242887.298203) can0 1814F583#
(1608242887.300488) can0 183DF4E8#0411811100000000
(1608242887.302476) can0 183DF4E8#0412911100000000
(1608242887.304477) can0 183DF4E8#0413A11100000000
(1608242887.308275) can0 1833F583#
(1608242887.314373) can0 1833F583#
(1608242887.345411) can0 1841F583#00000000
(1608242887.675830) can0 1830E8F4#0800000000000000
(1608242887.692423) can0 181080F5#FFFF0DA93E80FFFF
(1608242887.694472) can0 183280F5#0100000000000000
(1608242887.696470) can0 183280F5#0200000000000000
(1608242887.698483) can0 184080F5#0100000000000000
(1608242887.711805) can0 1811F580#01000D970DD70DE9
(1608242887.712400) can0 181081F5#FFFF0DA93E80FFFF
(1608242887.712943) can0 1811F580#04000DD00DDD0DB0
(1608242887.713804) can0 1811F580#07000DF20DE00DF0
(1608242887.714422) can0 183281F5#0100000000000000
(1608242887.714962) can0 1811F580#0A000DB50DA70DB4
(1608242887.715777) can0 1811F580#0D000DB60DCC0DB9
(1608242887.716361) can0 1830E8F4#0800000000000000
(1608242887.716907) can0 1811F580#10000DB10DC10DB6
(1608242887.717494) can0 183281F5#0200000000000000
(1608242887.718050) can0 1811F580#13000DA20DE90D4B
(1608242887.718651) can0 184081F5#0100000000000000
(1608242887.719197) can0 1811F580#16000D670D620D77
(1608242887.719767) can0 1811F580#19000CE40CD90CC1
(1608242887.720424) can0 1838F4E8#0000000000FFFFFF
(1608242887.720961) can0 1811F580#1C000CE10DD40DA4
(1608242887.721551) can0 1811F581#01000DBD0DCF0DC6
(1608242887.722109) can0 1811F580#1F000DD60DB50DA0
(1608242887.722659) can0 1811F581#04000DB50DAF0DAB
(1608242887.723224) can0 1811F580#22000DA40DEC0DC9
(1608242887.723779) can0 1811F580#25000DB60DAB0DEE
(1608242887.724333) can0 1811F581#07000DCA0DDB0CCE
(1608242887.724889) can0 1811F580#28000DC60DBB0DB8
(1608242887.725459) can0 1811F581#0A000CEC0CBA0CC2
(1608242887.726014) can0 1811F580#2B000DCE0DAE0DBA
(1608242887.726564) can0 1811F581#0D000D9B0D940DC4
(1608242887.727120) can0 1811F580#2E000DC20DA30DC7
(1608242887.727667) can0 1811F581#13000DC70DD50DBE
(1608242887.728230) can0 1811F581#10000DFB0D9B0DA8
(1608242887.728796) can0 1811F581#16000DC50DA70DCC
(1608242887.729348) can0 1812F580#0100414140404041
(1608242887.729910) can0 1811F581#19000DA10DBE0DB1
(1608242887.730476) can0 1812F580#0700424141414140
(1608242887.730890) can0 1811F581#1C000DC8
(1608242887.731490) can0 1815F580#0001000000000000
(1608242887.732062) can0 1812F581#0100414143404141
(1608242887.732391) can0 1812F581#070041
(1608242887.732980) can0 1816F580#00129111000000
(1608242887.733309) can0 1813F581#
(1608242887.733797) can0 1816F580#0013A111000000
(1608242887.734336) can0 1816F580#00118111000000
(1608242887.734648) can0 1814F580#
(1608242887.734973) can0 1813F580#
(1608242887.735481) can0 1815F581#0001000000000000
(1608242887.736016) can0 1816F581#00118111000000
(1608242887.736545) can0 1816F581#0012910D000000
(1608242887.736871) can0 1833F580#
(1608242887.737171) can0 1833F580#
(1608242887.737638) can0 1816F581#00138000000000
(1608242887.738245) can0 1838F4E8#0000000000FFFFFF
(1608242887.738584) can0 1814F581#
(1608242887.739260) can0 1833F581#
(1608242887.740273) can0 1833F581#
(1608242887.741425) can0 1841F581#00000000
(1608242887.742385) can0 181082F5#FFFF0DA93E80FFFF
(1608242887.744448) can0 183282F5#0100000000000000
(1608242887.746427) can0 183282F5#0200000000000000
(1608242887.748438) can0 184082F5#0100000000000000
(1608242887.755670) can0 1841F580#00000000
(1608242887.768421) can0 183ECCE8#41375F333643433F
(1608242887.770430) can0 183FCCE8#0535002214C33E80
(1608242887.772462) can0 1840CCE8#3E80F9383E803E80
(1608242887.774353) can0 1811F582#01000DC90DA60DC5
(1608242887.774751) can0 183BF4E8#0401000000000000
(1608242887.775374) can0 1811F582#04000DC80DDC0DC4
(1608242887.776229) can0 1811F582#07000DB30DBB0DB3
(1608242887.776770) can0 183DF4E8#0112911100000041
(1608242887.777333) can0 1811F582#0A000DBC0DC50DB6
(1608242887.778203) can0 1811F582#0D000DB40DDC0DB9
(1608242887.778767) can0 183DF4E8#0113A11100000041
(1608242887.779345) can0 1811F582#10000DC20D7C0D7C
(1608242887.780273) can0 1811F582#13000DBC0DA10DD1
(1608242887.780777) can0 183DF4E8#0111811100000041
(1608242887.781317) can0 1811F582#16000DC80DB50DAE
(1608242887.782306) can0 1811F582#19000DA20DB80DD0
(1608242887.782802) can0 183BF4E8#0801000000000000
(1608242887.783251) can0 1811F582#1C000DB7
(1608242887.784345) can0 1812F582#0100414140414341
(1608242887.784819) can0 183DF4E8#0211811100000000
(1608242887.785159) can0 1812F582#070040
(1608242887.786036) can0 1813F582#
(1608242887.786507) can0 183DF4E8#0212910D00000000
(1608242887.787257) can0 1815F582#0001000000000000
(1608242887.788201) can0 1816F582#00118111000000
(1608242887.788747) can0 183DF4E8#0213800000000000
(1608242887.789297) can0 1816F582#0012910D000000
(1608242887.790191) can0 1816F582#00138000000000
(1608242887.790855) can0 181083F5#FFFF0DA93E80FFFF
(1608242887.791220) can0 1814F582#
(1608242887.791938) can0 1833F582#
(1608242887.792518) can0 183283F5#0100000000000000
(1608242887.794450) can0 183283F5#0200000000000000
(1608242887.794961) can0 1811F583#01000DC30DC80DB4
(1608242887.795548) can0 1811F583#04000DB20CD40CE6
(1608242887.796442) can0 184083F5#0100000000000000
(1608242887.796955) can0 1811F583#07000CD80CC70DCD
(1608242887.797558) can0 1811F583#0A000DA50DBE0DDC
(1608242887.798447) can0 183BF4E8#0C01000000000000
(1608242887.798944) can0 1811F583#0D000DC70D940DDC
(1608242887.799565) can0 1811F583#10000DC00DB20DB3
(1608242887.800446) can0 183DF4E8#0311811100000000
(1608242887.800941) can0 1811F583#13000DD60DCE0DA7
(1608242887.801542) can0 1811F583#16000DDC0DC30DC9
(1608242887.802485) can0 183DF4E8#0312910D00000000
(1608242887.802978) can0 1811F583#19000DD40DC20DB4
(1608242887.803540) can0 1811F583#1C000DBB0DE20DB0
(1608242887.803874) can0 1833F582#
(1608242887.804510) can0 183DF4E8#0313800000000000
(1608242887.805060) can0 1811F583#1F000DC40DA00DB5
(1608242887.805618) can0 1811F583#22000DAF0DAD0DEB
(1608242887.806593) can0 1811F583#25000DAC0DB90DC1
(1608242887.807583) can0 1811F583#28000DE20DC80DD7
(1608242887.808590) can0 1811F583#2B000DB70D9E0DC7
(1608242887.809077) can0 1841F582#00000000
(1608242887.809637) can0 1811F583#2E000D970DD90DB1
(1608242887.810677) can0 1812F583#0100414341404041
(1608242887.811596) can0 1812F583#070040404040403F
(1608242887.812261) can0 1813F583#
(1608242887.813621) can0 1815F583#0001000000000000
(1608242887.814564) can0 1816F583#00118111000000
(1608242887.815555) can0 1816F583#00129111000000
(1608242887.816450) can0 183BF4E8#1001000000000000
(1608242887.816935) can0 1816F583#0013A111000000
(1608242887.817265) can0 1814F583#
(1608242887.820475) can0 183DF4E8#0411811100000000
(1608242887.822424) can0 183DF4E8#0412911100000000
(1608242887.824436) can0 183DF4E8#0413A11100000000
(1608242887.827300) can0 1833F583#
(1608242887.833286) can0 1833F583#
(1608242887.865447) can0 1841F583#00000000
(1608242888.182373) can0 1830E8F4#0800000000000000
(1608242888.192393) can0 181080F5#FFFF0DA93E80FFFF
(1608242888.194422) can0 183280F5#0100000000000000
(1608242888.196417) can0 183280F5#0200000000000000
(1608242888.198406) can0 184080F5#0100000000000000
(1608242888.198986) can0 1811F580#01000D970DD70DE9
(1608242888.199826) can0 1811F580#04000DCF0DDD0DAF
(1608242888.200818) can0 1811F580#07000DF10DE00DF0
(1608242888.201807) can0 1811F580#0A000DB50DA70DB4
(1608242888.202833) can0 1811F580#0D000DB60DCC0DB9
(1608242888.203826) can0 1811F580#10000DB00DC10DB6
(1608242888.204796) can0 1811F580#13000DA20DE90D4C
(1608242888.205825) can0 1811F580#16000D670D620D77
(1608242888.206798) can0 1811F580#19000CE40CD90CC1
(1608242888.207815) can0 1811F580#1C000CE10DD40DA4
(1608242888.208834) can0 1811F580#1F000DD60DB50DA0
(1608242888.209815) can0 1811F580#22000DA40DEC0DC9
(1608242888.210812) can0 1811F580#25000DB50DAB0DEE
(1608242888.211843) can0 1811F580#28000DC60DBB0DB8
(1608242888.212380) can0 181081F5#FFFF0DA93E80FFFF
(1608242888.212920) can0 1811F580#2B000DCE0DAE0DBA
(1608242888.213831) can0 1811F580#2E000DC20DA30DC7
(1608242888.214383) can0 183281F5#0100000000000000
(1608242888.215078) can0 1812F580#0100414140404041
(1608242888.215540) can0 1811F581#01000DBD0DCF0DC7
(1608242888.216123) can0 1812F580#0700424141414140
(1608242888.216706) can0 1811F581#04000DB50DAF0DAB
(1608242888.217042) can0 1813F580#
(1608242888.217525) can0 1830E8F4#0800000000000000
(1608242888.218094) can0 1811F581#07000DCA0DDC0CCE
(1608242888.218650) can0 1811F581#0A000CEC0CBA0CC3
