(1605726422.019523) vcan0 183ECCE8#4139E9391A444540
(1605726422.021542) vcan0 183FCCE8#0450002015E33E9D
(1605726422.023521) vcan0 1840CCE8#3EDAA6A83E943EA8
(1605726422.117529) vcan0 181080F5#FFFF0E663E9DFFFF
(1605726422.119551) vcan0 183280F5#0100000000000000
(1605726422.120592) vcan0 1811F580#01000E380E7B0E8D
(1605726422.121579) vcan0 183280F5#0200000000000000
(1605726422.122069) vcan0 1811F580#04000E720E530E24
(1605726422.122658) vcan0 1811F580#07000E670E560EA7
(1605726422.123536) vcan0 184080F5#0100000000000000
(1605726422.124088) vcan0 1811F580#0A000E690E5B0E68
(1605726422.124713) vcan0 1811F580#0D000E6F0E860E73
(1605726422.125641) vcan0 1811F580#10000E6B0E750E69
(1605726422.126574) vcan0 1811F580#13000E540E9E0E58
(1605726422.127655) vcan0 1811F580#16000E750E700E86
(1605726422.128641) vcan0 1811F580#19000E840E770E5C
(1605726422.129614) vcan0 1811F580#1C000E7F0E850E52
(1605726422.130576) vcan0 1811F580#1F000E870E640E44
(1605726422.131578) vcan0 1811F580#22000E480E940E6F
(1605726422.132629) vcan0 1811F580#25000E590E4E0E93
(1605726422.133641) vcan0 1811F580#28000E6B0E5D0E59
(1605726422.134679) vcan0 1811F580#2B000E700E500E58
(1605726422.135672) vcan0 1811F580#2E000E600E400E66
(1605726422.136566) vcan0 1812F580#0100424242404243
(1605726422.137522) vcan0 181081F5#FFFF0E663E9DFFFF
(1605726422.138084) vcan0 1812F580#0700434242444342
(1605726422.138406) vcan0 1813F580#
(1605726422.139550) vcan0 183281F5#0100000000000000
(1605726422.140142) vcan0 1815F580#0001000000000000
(1605726422.140672) vcan0 1816F580#00118111000000
(1605726422.141540) vcan0 183281F5#0200000000000000
(1605726422.143293) vcan0 1816F580#00129111000000
(1605726422.143581) vcan0 1811F581#01000E620E750E6D
(1605726422.144134) vcan0 1811F581#04000E5B0E540E50
(1605726422.144476) vcan0 1811F581#07000E710E830E58
(1605726422.144791) vcan0 1814F580#
(1605726422.145022) vcan0 1833F580#
(1605726422.145410) vcan0 1811F581#0A000E7A0E420E4C
(1605726422.146038) vcan0 184081F5#0100000000000000
(1605726422.146625) vcan0 1811F581#0D000E380E320E65
(1605726422.147211) vcan0 183BF4E8#0401000000000000
(1605726422.148053) vcan0 1811F581#10000E9F0E3D0E4B
(1605726422.148640) vcan0 1811F581#13000E6B0E790E6A
(1605726422.149212) vcan0 183DF4E8#0111811100000000
(1605726422.149718) vcan0 1811F581#16000E720E520E79
(1605726422.150329) vcan0 1811F581#19000E4D0E6C0E5F
(1605726422.150843) vcan0 183DF4E8#0112911100000000
(1605726422.151259) vcan0 1811F581#1C000E7B
(1605726422.151884) vcan0 183DF4E8#0113A1110000006D
(1605726422.152394) vcan0 1812F581#0100424343424343
(1605726422.153076) vcan0 1812F581#070042
(1605726422.153943) vcan0 1813F581#
(1605726422.155331) vcan0 1815F581#0001000000000000
(1605726422.156308) vcan0 1816F581#00118111000000
(1605726422.157297) vcan0 1816F581#0012910D000000
(1605726422.158230) vcan0 1816F581#00138000000000
(1605726422.158969) vcan0 1814F581#
(1605726422.159365) vcan0 1833F580#
(1605726422.160016) vcan0 1833F581#
(1605726422.165467) vcan0 1841F580#00000000
(1605726422.167525) vcan0 181082F5#FFFF0E663E9DFFFF
(1605726422.169543) vcan0 183282F5#0100000000000000
(1605726422.171555) vcan0 183282F5#0200000000000000
(1605726422.173548) vcan0 184082F5#0100000000000000
(1605726422.176824) vcan0 1811F582#01000E770E520E73
(1605726422.177819) vcan0 1811F582#04000E770E870E6E
(1605726422.178822) vcan0 1811F582#07000E5C0E650E54
(1605726422.179556) vcan0 183BF4E8#0801000000000000
(1605726422.180079) vcan0 1811F582#0A000E5E0E670E59
(1605726422.180452) vcan0 1833F581#
(1605726422.180936) vcan0 1811F582#0D000E500E790E56
(1605726422.181561) vcan0 183DF4E8#0211811100000000
(1605726422.182106) vcan0 1811F582#10000E600E2C0E2C
(1605726422.182819) vcan0 1811F582#13000E6F0E530E74
(1605726422.183602) vcan0 183DF4E8#0212910D00000000
(1605726422.184140) vcan0 1811F582#16000E6A0E570E4F
(1605726422.184860) vcan0 1811F582#19000E3A0E510E6B
(1605726422.185593) vcan0 183DF4E8#0213800000000000
(1605726422.185902) vcan0 1811F582#1C000E51
(1605726422.186395) vcan0 1841F581#00000000
(1605726422.187032) vcan0 1812F582#0100434342434543
(1605726422.187628) vcan0 1812F582#070042
(1605726422.188611) vcan0 1813F582#
(1605726422.189867) vcan0 1815F582#0001000000000000
(1605726422.190817) vcan0 1816F582#00118111000000
(1605726422.191817) vcan0 1816F582#0012910D000000
(1605726422.192835) vcan0 1816F582#00138000000000
(1605726422.193579) vcan0 183BF4E8#0C01000000000000
(1605726422.193918) vcan0 1814F582#
(1605726422.194565) vcan0 1833F582#
(1605726422.195550) vcan0 183DF4E8#0311811100000000
(1605726422.197528) vcan0 181083F5#FFFF0E663E9DFFFF
(1605726422.199545) vcan0 183283F5#0100000000000000
(1605726422.201560) vcan0 183283F5#0200000000000000
(1605726422.203603) vcan0 184083F5#0100000000000000
(1605726422.206548) vcan0 1833F582#
(1605726422.211744) vcan0 1841F582#00000000
(1605726422.224721) vcan0 1811F583#01000E720E780E62
(1605726422.225705) vcan0 1811F583#04000E600E610E76
(1605726422.226708) vcan0 1811F583#07000E650E520E85
(1605726422.227692) vcan0 1811F583#0A000E5B0E750E94
(1605726422.228703) vcan0 1811F583#0D000E7D0E470E94
(1605726422.229704) vcan0 1811F583#10000E760E630E63
(1605726422.230705) vcan0 1811F583#13000E890E800E4D
(1605726422.231757) vcan0 1811F583#16000E850E6B0E71
(1605726422.232680) vcan0 1811F583#19000E890E760E67
(1605726422.233673) vcan0 1811F583#1C000E6E0E8B0E56
(1605726422.234686) vcan0 1811F583#1F000E6C0E460E60
(1605726422.235667) vcan0 1811F583#22000E5A0E570E99
(1605726422.236668) vcan0 1811F583#25000E4E0E5B0E63
(1605726422.237737) vcan0 1811F583#28000E860E6B0E7C
(1605726422.238721) vcan0 1811F583#2B000E5A0E400E7B
(1605726422.239677) vcan0 1811F583#2E000E490E8E0E69
(1605726422.240656) vcan0 1812F583#0100424442414243
(1605726422.241670) vcan0 1812F583#0700424141424240
(1605726422.243774) vcan0 1813F583#
(1605726422.243930) vcan0 1815F583#0001000000000000
(1605726422.244578) vcan0 1816F583#00118111000000
(1605726422.245562) vcan0 1816F583#00129111000000
(1605726422.246573) vcan0 1816F583#0013A111000000
(1605726422.247401) vcan0 183DF4E8#0312910D00000000
(1605726422.247666) vcan0 1814F583#
(1605726422.248298) vcan0 1833F583#
(1605726422.249415) vcan0 183DF4E8#0313800000000000
(1605726422.251425) vcan0 183BF4E8#1001000000000000
(1605726422.253410) vcan0 183DF4E8#0411811100000000
(1605726422.255405) vcan0 183DF4E8#0412911100000000
(1605726422.257404) vcan0 183DF4E8#0413A11100000000
(1605726422.263311) vcan0 1833F583#
(1605726422.268488) vcan0 1841F583#00000000
(1605726422.290473) vcan0 1830E8F4#0800000000000000
(1605726422.293433) vcan0 1838F4E8#0000000000FFFFFF
(1605726422.389430) vcan0 1830E8F4#0800000000000000
(1605726422.391528) vcan0 1838F4E8#0000000000FFFFFF
(1605726422.531504) vcan0 1830CCE8#010139B2393439D3
(1605726422.533495) vcan0 1830CCE8#020439D339D039C3
(1605726422.535512) vcan0 1830CCE8#030739D639C2398F
(1605726422.537493) vcan0 1830CCE8#040A39A53976395E
(1605726422.539493) vcan0 1830CCE8#050D399F39983960
(1605726422.541477) vcan0 1830CCE8#0610396E396C39A7
(1605726422.543535) vcan0 1830CCE8#0713399339B339B6
(1605726422.545514) vcan0 1830CCE8#08163972397F391A
(1605726422.547488) vcan0 1830CCE8#09193984394739AC
(1605726422.549480) vcan0 1830CCE8#0A1C398E39E939CE
(1605726422.551502) vcan0 1830CCE8#0B1F39CF39AE39D4
(1605726422.553508) vcan0 1830CCE8#0C22399339AA3992
(1605726422.555484) vcan0 1830CCE8#0D25398139BB0000
(1605726422.557620) vcan0 1831CCE8#0101424242404243
(1605726422.559482) vcan0 1831CCE8#0207434242444342
(1605726422.561490) vcan0 1831CCE8#030D424343424343
(1605726422.563487) vcan0 1831CCE8#0413424343424345
(1605726422.565483) vcan0 1831CCE8#0519434242444241
(1605726422.567514) vcan0 1831CCE8#061F424342414142
(1605726422.569520) vcan0 1831CCE8#07254240FFFFFFFF
(1605726422.571509) vcan0 1834CCE8#0104040700484144
(1605726422.573499) vcan0 1834CCE8#023E9D3E9D3EAC50
(1605726422.575473) vcan0 1834CCE8#0315E3166600F163
(1605726422.577492) vcan0 1834CCE8#043EF83E62470564
(1605726422.579477) vcan0 1834CCE8#0500C71AA7260200
(1605726422.581500) vcan0 1834CCE8#0600FF000000FF00
(1605726422.583505) vcan0 1838CCE8#0000FF20FFFFFFFF
(1605726422.585498) vcan0 183DCCE8#0100000000000000
(1605726422.587503) vcan0 183DCCE8#02000000FFFFFFFF
(1605726422.589545) vcan0 1840CCE8#3EDAA8383E943EA8
(1605726422.618286) vcan0 181080F5#FFFF0E663E9DFFFF
(1605726422.619512) vcan0 183280F5#0100000000000000
(1605726422.621505) vcan0 183280F5#0200000000000000
(1605726422.623510) vcan0 184080F5#0100000000000000
(1605726422.637502) vcan0 181081F5#FFFF0E663E9DFFFF
(1605726422.638603) vcan0 1811F580#01000E380E7B0E8D
(1605726422.639526) vcan0 183281F5#0100000000000000
(1605726422.640067) vcan0 1811F580#04000E720E530E24
(1605726422.640637) vcan0 1811F580#07000E670E560EA7
(1605726422.641518) vcan0 183281F5#0200000000000000
(1605726422.642073) vcan0 1811F580#0A000E690E5B0E68
(1605726422.642654) vcan0 1811F580#0D000E6F0E860E73
(1605726422.643565) vcan0 184081F5#0100000000000000
(1605726422.644101) vcan0 1811F580#10000E6B0E750E69
(1605726422.644655) vcan0 1811F580#13000E540E9E0E58
(1605726422.645604) vcan0 1811F580#16000E750E700E86
(1605726422.646676) vcan0 1811F580#19000E840E770E5C
(1605726422.647621) vcan0 1811F580#1C000E7F0E850E52
(1605726422.648657) vcan0 1811F580#1F000E870E640E44
(1605726422.649650) vcan0 1811F580#22000E480E940E6F
(1605726422.650603) vcan0 1811F580#25000E590E4E0E93
(1605726422.651602) vcan0 1811F580#28000E6B0E5D0E59
(1605726422.652625) vcan0 1811F580#2B000E710E500E58
(1605726422.653641) vcan0 1811F580#2E000E600E400E66
(1605726422.654627) vcan0 1812F580#0100424242404243
(1605726422.655595) vcan0 1812F580#0700434242444342
(1605726422.656381) vcan0 1813F580#
(1605726422.657638) vcan0 1815F580#0001000000000000
(1605726422.658628) vcan0 1816F580#00118111000000
(1605726422.659630) vcan0 1816F580#00129111000000
(1605726422.660626) vcan0 1816F580#0013A111000000
(1605726422.661538) vcan0 183BF4E8#0401000000000000
(1605726422.661965) vcan0 1814F580#
(1605726422.662338) vcan0 1833F580#
(1605726422.663556) vcan0 183DF4E8#0111811100000000
(1605726422.663919) vcan0 1833F580#
(1605726422.665558) vcan0 183DF4E8#0112911100000000
(1605726422.667508) vcan0 183DF4E8#0113A11100000000
(1605726422.669490) vcan0 181082F5#FFFF0E663E9DFFFF
(1605726422.671515) vcan0 183282F5#0100000000000000
(1605726422.673510) vcan0 183282F5#0200000000000000
(1605726422.675514) vcan0 184082F5#0100000000000000
(1605726422.682499) vcan0 1841F580#00000000
(1605726422.695282) vcan0 1811F581#01000E620E750E6C
(1605726422.696350) vcan0 1811F581#04000E5B0E540E50
(1605726422.697291) vcan0 1811F581#07000E710E830E58
(1605726422.697816) vcan0 181083F5#FFFF0E663E9DFFFF
(1605726422.698471) vcan0 1811F581#0A000E7A0E410E4C
(1605726422.699317) vcan0 1811F581#0D000E380E320E65
(1605726422.699843) vcan0 183283F5#0100000000000000
(1605726422.700536) vcan0 1811F581#10000E9F0E3E0E4B
(1605726422.701328) vcan0 1811F581#13000E6B0E790E6A
(1605726422.701831) vcan0 183283F5#0200000000000000
(1605726422.702396) vcan0 1811F581#16000E720E520E79
(1605726422.703270) vcan0 1811F581#19000E4D0E6C0E5F
(1605726422.703865) vcan0 184083F5#0100000000000000
(1605726422.704290) vcan0 1811F581#1C000E7B
(1605726422.704839) vcan0 1811F583#01000E720E780E62
(1605726422.705448) vcan0 1812F581#0100424343424343
(1605726422.705962) vcan0 1811F583#04000E600E610E76
(1605726422.706272) vcan0 1812F581#070042
(1605726422.706942) vcan0 1811F583#07000E650E520E85
(1605726422.707324) vcan0 1813F581#
(1605726422.707770) vcan0 1811F583#0A000E5B0E750E94
(1605726422.708403) vcan0 1815F581#0001000000000000
(1605726422.708873) vcan0 1811F583#0D000E7D0E480E94
(1605726422.710011) vcan0 1811F583#10000E760E630E63
(1605726422.710512) vcan0 1816F581#00118111000000
(1605726422.711071) vcan0 1811F583#13000E890E800E4D
(1605726422.711603) vcan0 1816F581#00138000000000
(1605726422.712146) vcan0 1811F583#16000E850E6B0E71
(1605726422.712441) vcan0 1814F581#
(1605726422.712988) vcan0 1811F583#19000E890E760E67
(1605726422.713491) vcan0 1816F581#0012910D000000
(1605726422.714046) vcan0 1811F583#1C000E6E0E8B0E56
(1605726422.714760) vcan0 1811F583#1F000E6C0E460E60
(1605726422.715845) vcan0 1811F583#22000E5A0E580E98
(1605726422.716813) vcan0 1811F583#25000E4E0E5B0E63
(1605726422.717738) vcan0 1811F583#28000E860E6C0E7C
(1605726422.718728) vcan0 1811F583#2B000E5A0E400E7B
(1605726422.719683) vcan0 183BF4E8#0801000000000000
(1605726422.720012) vcan0 1811F583#2E000E490E8E0E69
(1605726422.720856) vcan0 1812F583#0100424442414243
(1605726422.721544) vcan0 183DF4E8#0211811100000063
(1605726422.721985) vcan0 1812F583#0700424141424240
(1605726422.722436) vcan0 1813F583#
(1605726422.723508) vcan0 183DF4E8#021380000000004D
(1605726422.724134) vcan0 1815F583#0001000000000000
(1605726422.724720) vcan0 1816F583#00118111000000
(1605726422.725281) vcan0 1811F582#01000E770E520E73
(1605726422.725791) vcan0 1816F583#00129111000000
(1605726422.726392) vcan0 1811F582#04000E770E870E6E
(1605726422.726906) vcan0 1811F582#07000E5C0E640E54
(1605726422.727431) vcan0 1816F583#0013A111000000
(1605726422.727976) vcan0 1811F582#0A000E5E0E670E59
(1605726422.728351) vcan0 1814F583#
(1605726422.728695) vcan0 1833F583#
(1605726422.729063) vcan0 1811F582#0D000E500E7A0E56
(1605726422.729750) vcan0 183DF4E8#0212910D00000067
(1605726422.730225) vcan0 1811F582#10000E600E2C0E2D
(1605726422.730851) vcan0 1811F582#13000E6F0E520E74
(1605726422.731989) vcan0 1811F582#16000E6A0E570E4F
(1605726422.732940) vcan0 1811F582#19000E3B0E510E6B
(1605726422.733838) vcan0 1811F582#1C000E51
(1605726422.734842) vcan0 1812F582#0100434342434543
(1605726422.735709) vcan0 1812F582#070042
(1605726422.736598) vcan0 1813F582#
(1605726422.737849) vcan0 1815F582#0001000000000000
(1605726422.738804) vcan0 1816F582#00118111000000
(1605726422.739795) vcan0 1816F582#0012910D000000
(1605726422.740855) vcan0 1816F582#00138000000000
(1605726422.741547) vcan0 1814F582#
(1605726422.742576) vcan0 1833F582#
(1605726422.743499) vcan0 183BF4E8#1001000000000000
(1605726422.743824) vcan0 1833F582#
(1605726422.744204) vcan0 1833F583#
(1605726422.744813) vcan0 1841F582#00000000
(1605726422.745500) vcan0 183DF4E8#0411811100000000
(1605726422.747518) vcan0 183DF4E8#0412911100000073
(1605726422.748640) vcan0 1841F583#00000000
(1605726422.749529) vcan0 183DF4E8#0413A11100000054
(1605726422.751490) vcan0 183BF4E8#0C01000000000000
(1605726422.753479) vcan0 183DF4E8#0311811100000000
(1605726422.755522) vcan0 183DF4E8#0312910D00000000
(1605726422.757644) vcan0 183DF4E8#0313800000000000
(1605726422.770989) vcan0 1833F581#
(1605726422.775967) vcan0 1833F581#
(1605726422.782124) vcan0 1841F581#00000000
(1605726422.797019) vcan0 1830E8F4#0800000000000000
(1605726422.818197) vcan0 1838F4E8#0000000000FFFFFF
(1605726422.898071) vcan0 1830E8F4#0800000000000000
(1605726422.901507) vcan0 1838F4E8#0000000000FFFFFF
(1605726423.117469) vcan0 181080F5#FFFF0E663E9DFFFF
(1605726423.119494) vcan0 183280F5#0100000000000000
(1605726423.120633) vcan0 1811F580#01000E390E7B0E8D
(1605726423.121547) vcan0 183280F5#0200000000000000
(1605726423.122047) vcan0 1811F580#04000E720E530E24
(1605726423.122655) vcan0 1811F580#07000E670E550EA7
(1605726423.123490) vcan0 184080F5#0100000000000000
(1605726423.124080) vcan0 1811F580#0A000E690E5A0E68
(1605726423.124688) vcan0 1811F580#0D000E6F0E860E73
(1605726423.125657) vcan0 1811F580#10000E6A0E750E69
(1605726423.126646) vcan0 1811F580#13000E540E9E0E58
(1605726423.127629) vcan0 1811F580#16000E750E700E86
(1605726423.128702) vcan0 1811F580#19000E840E770E5C
(1605726423.129701) vcan0 1811F580#1C000E7F0E850E52
(1605726423.130654) vcan0 1811F580#1F000E870E640E44
(1605726423.131669) vcan0 1811F580#22000E480E940E6F
(1605726423.132666) vcan0 1811F580#25000E590E4E0E94
(1605726423.133614) vcan0 1811F580#28000E6B0E5D0E59
(1605726423.134686) vcan0 1811F580#2B000E700E4F0E58
(1605726423.135692) vcan0 1811F580#2E000E600E400E66
(1605726423.136663) vcan0 1812F580#0100424242404243
(1605726423.137483) vcan0 181081F5#FFFF0E663E9DFFFF
(1605726423.138001) vcan0 1812F580#0700434242444342
(1605726423.138384) vcan0 1813F580#
(1605726423.139320) vcan0 1811F581#01000E620E750E6C
(1605726423.139856) vcan0 1815F580#0001000000000000
(1605726423.140398) vcan0 1811F581#04000E5A0E540E50
(1605726423.140947) vcan0 1816F580#00118111000000
(1605726423.141548) vcan0 1811F581#07000E710E830E58
(1605726423.142098) vcan0 1816F580#00129111000000
(1605726423.142617) vcan0 1811F581#0A000E7A0E410E4C
(1605726423.143169) vcan0 1816F580#0013A111000000
(1605726423.143712) vcan0 1811F581#0D000E390E320E65
(1605726423.144072) vcan0 1814F580#
(1605726423.144591) vcan0 1811F581#10000E9F0E3E0E4B
(1605726423.145133) vcan0 183281F5#0100000000000000
(1605726423.145703) vcan0 1811F581#13000E6B0E790E6A
(1605726423.146297) vcan0 183281F5#0200000000000000
(1605726423.146914) vcan0 1811F581#16000E720E520E79
(1605726423.147402) vcan0 1811F581#19000E4D0E6C0E5F
(1605726423.147706) vcan0 1833F580#
(1605726423.148303) vcan0 184081F5#0100000000000000
(1605726423.148705) vcan0 1811F581#1C000E7B
(1605726423.149270) vcan0 1812F581#0100424343424343
(1605726423.150096) vcan0 1812F581#070042
(1605726423.150998) vcan0 1813F581#
(1605726423.152359) vcan0 1815F581#0001000000000000
(1605726423.153344) vcan0 1816F581#00118111000000
(1605726423.154228) vcan0 1816F581#0012910D000000
(1605726423.155285) vcan0 1816F581#00138000000000
(1605726423.155826) vcan0 183ECCE8#4139E9391A444540
(1605726423.156147) vcan0 1814F581#
(1605726423.157575) vcan0 183FCCE8#0450002015E33E9D
(1605726423.159438) vcan0 1840CCE8#3EDAAA183E943EA8
(1605726423.159753) vcan0 1833F580#
(1605726423.161480) vcan0 183BF4E8#0401000000000000
(1605726423.163502) vcan0 183DF4E8#0111811100000050
(1605726423.164548) vcan0 1841F580#00000000
(1605726423.165487) vcan0 183DF4E8#0112911100000058
(1605726423.167468) vcan0 183DF4E8#0113A1110000004C
(1605726423.169470) vcan0 183BF4E8#0801000000000000
(1605726423.171462) vcan0 183DF4E8#0211811100000000
(1605726423.173473) vcan0 183DF4E8#0212910D00000000
(1605726423.175477) vcan0 183DF4E8#0213800000000000
(1605726423.176989) vcan0 1833F581#
(1605726423.177562) vcan0 181082F5#FFFF0E663E9DFFFF
(1605726423.179488) vcan0 183282F5#0100000000000000
(1605726423.181520) vcan0 183282F5#0200000000000000
(1605726423.182894) vcan0 1811F582#01000E770E520E73
(1605726423.183240) vcan0 1833F581#
(1605726423.183712) vcan0 184082F5#0100000000000000
(1605726423.184280) vcan0 1811F582#04000E760E870E6E
(1605726423.184854) vcan0 1811F582#07000E5C0E640E54
(1605726423.185920) vcan0 1811F582#0A000E5E0E670E58
(1605726423.186913) vcan0 1811F582#0D000E500E7A0E56
(1605726423.187859) vcan0 1811F582#10000E5F0E2C0E2C
(1605726423.188225) vcan0 1841F581#00000000
(1605726423.188867) vcan0 1811F582#13000E6F0E520E74
(1605726423.190431) vcan0 1811F582#16000E6A0E570E4F
(1605726423.190975) vcan0 1811F582#19000E3A0E520E6B
(1605726423.191751) vcan0 1811F582#1C000E51
(1605726423.192834) vcan0 1812F582#0100434342434543
(1605726423.193674) vcan0 1812F582#070042
(1605726423.194578) vcan0 1813F582#
(1605726423.195952) vcan0 1815F582#0001000000000000
(1605726423.196819) vcan0 1816F582#00118111000000
(1605726423.197487) vcan0 181083F5#FFFF0E663E9DFFFF
(1605726423.197975) vcan0 1816F582#0012910D000000
(1605726423.198886) vcan0 1816F582#00138000000000
(1605726423.199468) vcan0 183283F5#0100000000000000
(1605726423.199830) vcan0 1814F582#
(1605726423.201494) vcan0 183283F5#0200000000000000
(1605726423.203555) vcan0 184083F5#0100000000000000
(1605726423.214594) vcan0 1833F582#
(1605726423.219473) vcan0 183BF4E8#0C01000000000000
(1605726423.219817) vcan0 1833F582#
(1605726423.221468) vcan0 183DF4E8#0311811100000000
(1605726423.223457) vcan0 183DF4E8#0312910D00000000
(1605726423.225470) vcan0 183DF4E8#0313800000000000
(1605726423.225896) vcan0 1841F582#00000000
(1605726423.227761) vcan0 1811F583#01000E720E780E62
(1605726423.228759) vcan0 1811F583#04000E600E610E76
(1605726423.229774) vcan0 1811F583#07000E650E520E85
(1605726423.230771) vcan0 1811F583#0A000E5B0E750E94
(1605726423.231811) vcan0 1811F583#0D000E7D0E480E94
(1605726423.232765) vcan0 1811F583#10000E760E630E63
(1605726423.233758) vcan0 1811F583#13000E890E800E4D
(1605726423.234821) vcan0 1811F583#16000E850E6B0E70
(1605726423.235786) vcan0 1811F583#19000E890E760E67
(1605726423.236756) vcan0 1811F583#1C000E6E0E8B0E56
(1605726423.237750) vcan0 1811F583#1F000E6C0E460E60
(1605726423.238788) vcan0 1811F583#22000E5A0E580E98
(1605726423.239752) vcan0 1811F583#25000E4E0E5B0E63
(1605726423.240779) vcan0 1811F583#28000E860E6C0E7B
(1605726423.241784) vcan0 1811F583#2B000E5A0E400E7B
(1605726423.242817) vcan0 1811F583#2E000E490E8E0E69
(1605726423.243782) vcan0 1812F583#0100424442414243
(1605726423.244778) vcan0 1812F583#0700424141424240
(1605726423.245521) vcan0 1813F583#
(1605726423.246814) vcan0 1815F583#0001000000000000
(1605726423.247741) vcan0 1816F583#00118111000000
(1605726423.248720) vcan0 1816F583#00129111000000
(1605726423.249759) vcan0 1816F583#0013A111000000
(1605726423.250496) vcan0 1814F583#
(1605726423.251472) vcan0 1833F583#
(1605726423.259484) vcan0 183BF4E8#1001000000000000
(1605726423.261467) vcan0 183DF4E8#0411811100000000
(1605726423.263463) vcan0 183DF4E8#0412911100000000
(1605726423.265458) vcan0 183DF4E8#0413A11100000000
(1605726423.266507) vcan0 1833F583#
(1605726423.271622) vcan0 1841F583#00000000
(1605726423.303225) vcan0 1830E8F4#0800000000000000
(1605726423.321478) vcan0 1838F4E8#0000000000FFFFFF
(1605726423.404079) vcan0 1830E8F4#0800000000000000
(1605726423.427469) vcan0 1838F4E8#0000000000FFFFFF
(1605726423.563182) vcan0 1830E8F4#0800000000000000
(1605726423.565977) vcan0 1838F4E8#0000000000FFFFFF
(1605726423.618210) vcan0 181080F5#FFFF0E663E9DFFFF
(1605726423.619452) vcan0 183280F5#0100000000000000
(1605726423.621447) vcan0 183280F5#0200000000000000
(1605726423.623446) vcan0 184080F5#0100000000000000
(1605726423.637428) vcan0 181081F5#FFFF0E663E9DFFFF
(1605726423.637968) vcan0 1811F580#01000E390E7B0E8D
(1605726423.638675) vcan0 1811F580#04000E720E530E24
(1605726423.639499) vcan0 183281F5#0100000000000000
(1605726423.640058) vcan0 1811F580#07000E670E550EA7
(1605726423.640672) vcan0 1811F580#0A000E690E5A0E68
(1605726423.641472) vcan0 183281F5#0200000000000000
(1605726423.642014) vcan0 1811F580#0D000E700E860E73
(1605726423.642644) vcan0 1811F580#10000E6A0E750E69
(1605726423.643470) vcan0 184081F5#0100000000000000
(1605726423.644026) vcan0 1811F580#13000E540E9F0E58
(1605726423.644693) vcan0 1811F580#16000E750E700E86
(1605726423.645688) vcan0 1811F580#19000E840E770E5C
(1605726423.646690) vcan0 1811F580#1C000E7F0E850E52
(1605726423.647657) vcan0 1811F580#1F000E870E640E44
(1605726423.648709) vcan0 1811F580#22000E480E940E6F
(1605726423.649426) vcan0 1830CCE8#010139B3393339D2
(1605726423.649961) vcan0 1811F580#25000E590E4E0E94
(1605726423.650770) vcan0 1811F580#28000E6B0E5D0E5A
(1605726423.651421) vcan0 1830CCE8#020439D239D039C3
(1605726423.651993) vcan0 1811F580#2B000E700E4F0E58
(1605726423.652677) vcan0 1811F580#2E000E610E400E65
(1605726423.653466) vcan0 1830CCE8#030739D639C2398F
(1605726423.653942) vcan0 1812F580#0100424242404243
(1605726423.654706) vcan0 1812F580#0700434242444342
(1605726423.655417) vcan0 1830CCE8#040A39A63975395E
(1605726423.655768) vcan0 1813F580#
(1605726423.656412) vcan0 1811F581#01000E630E750E6C
(1605726423.656993) vcan0 1815F580#0001000000000000
(1605726423.657438) vcan0 1811F581#04000E5A0E540E50
(1605726423.657987) vcan0 1816F580#00118111000000
(1605726423.658685) vcan0 1811F581#07000E710E830E58
(1605726423.659096) vcan0 1816F580#00129111000000
(1605726423.659612) vcan0 1811F581#0A000E7A0E410E4C
(1605726423.660142) vcan0 1816F580#0013A111000000
(1605726423.660713) vcan0 1811F581#0D000E390E320E65
(1605726423.661346) vcan0 1814F580#
(1605726423.661754) vcan0 1811F581#10000E9F0E3E0E4B
(1605726423.662070) vcan0 1830CCE8#050D399D3998395F
(1605726423.662700) vcan0 1811F581#13000E6B0E790E6A
(1605726423.663322) vcan0 1830CCE8#0610396F396D39A7
(1605726423.663847) vcan0 1811F581#16000E720E520E79
(1605726423.664340) vcan0 1811F581#19000E4D0E6C0E5F
(1605726423.664887) vcan0 1830CCE8#08163971397F3919
(1605726423.665455) vcan0 1811F581#1C000E7B
(1605726423.665786) vcan0 1830CCE8#09193984394839AC
(1605726423.666403) vcan0 1812F581#0100424343424343
(1605726423.666940) vcan0 1830CCE8#0713399339B239B5
(1605726423.667279) vcan0 1812F581#070042
(1605726423.667870) vcan0 1830CCE8#0A1C398E39E939CF
(1605726423.668234) vcan0 1813F581#
(1605726423.668580) vcan0 1833F580#
(1605726423.669021) vcan0 1833F580#
(1605726423.669392) vcan0 1815F581#0001000000000000
(1605726423.669863) vcan0 1830CCE8#0B1F39CF39AD39D4
(1605726423.670406) vcan0 1816F581#00118111000000
(1605726423.671322) vcan0 1816F581#0012910D000000
(1605726423.671794) vcan0 1830CCE8#0C22399339AA3992
(1605726423.672326) vcan0 1816F581#00138000000000
(1605726423.673096) vcan0 1814F581#
(1605726423.673689) vcan0 1830CCE8#0D25398139BB0000
(1605726423.674009) vcan0 1833F581#
(1605726423.675071) vcan0 1833F581#
(1605726423.675587) vcan0 1831CCE8#0101424242404243
(1605726423.677473) vcan0 1831CCE8#0207434242444342
(1605726423.679465) vcan0 1831CCE8#030D424343424343
(1605726423.681467) vcan0 1831CCE8#0413424343424345
(1605726423.682583) vcan0 1841F580#00000000
(1605726423.683432) vcan0 1831CCE8#0519434242444241
(1605726423.685477) vcan0 1831CCE8#061F424342414142
(1605726423.687436) vcan0 1831CCE8#07254240FFFFFFFF
(1605726423.689434) vcan0 1834CCE8#0104040700484144
(1605726423.691192) vcan0 1841F581#00000000
(1605726423.691792) vcan0 1834CCE8#023E9D3E9D3EAC50
(1605726423.693424) vcan0 1834CCE8#0315E3166600F163
(1605726423.695416) vcan0 1834CCE8#043EF83E62470564
(1605726423.697429) vcan0 1834CCE8#0500C71AA7260200
(1605726423.699483) vcan0 1834CCE8#0600FF000000FF00
(1605726423.701440) vcan0 1838CCE8#0000FF20FFFFFFFF
(1605726423.703487) vcan0 183DCCE8#0100000000000000
(1605726423.705432) vcan0 183DCCE8#02000000FFFFFFFF
(1605726423.707598) vcan0 1840CCE8#3EDAABA83E943EA8
(1605726423.709416) vcan0 181082F5#FFFF0E663E9DFFFF
(1605726423.711468) vcan0 183282F5#0100000000000000
(1605726423.713433) vcan0 183282F5#0200000000000000
(1605726423.715427) vcan0 184082F5#0100000000000000
(1605726423.717435) vcan0 183BF4E8#0401000000000000
(1605726423.719423) vcan0 183DF4E8#0111811100000050
(1605726423.721423) vcan0 183DF4E8#0112911100000058
(1605726423.723423) vcan0 183DF4E8#0113A1110000004C
(1605726423.725449) vcan0 183BF4E8#0801000000000000
(1605726423.727431) vcan0 183DF4E8#0211811100000000
(1605726423.729439) vcan0 183DF4E8#0212910D00000000
(1605726423.731442) vcan0 183DF4E8#0213800000000000
(1605726423.733436) vcan0 181083F5#FFFF0E663E9DFFFF
(1605726423.735436) vcan0 183283F5#0100000000000000
(1605726423.735990) vcan0 1811F582#01000E770E520E73
(1605726423.736915) vcan0 1811F582#04000E760E870E6E
(1605726423.737447) vcan0 183283F5#0200000000000000
(1605726423.738013) vcan0 1811F582#07000E5D0E640E54
(1605726423.739014) vcan0 1811F582#0A000E5E0E670E58
(1605726423.739695) vcan0 184083F5#0100000000000000
(1605726423.740045) vcan0 1811F582#0D000E500E7A0E56
(1605726423.740904) vcan0 1811F582#10000E600E2C0E2C
(1605726423.741977) vcan0 1811F582#13000E6F0E520E74
(1605726423.742882) vcan0 1811F582#16000E6A0E570E4F
(1605726423.743937) vcan0 1811F582#19000E3A0E510E6B
(1605726423.744769) vcan0 1811F582#1C000E50
(1605726423.745884) vcan0 1812F582#0100434342434543
(1605726423.746743) vcan0 1812F582#070042
(1605726423.747823) vcan0 1811F583#01000E730E780E62
(1605726423.748158) vcan0 1813F582#
(1605726423.748794) vcan0 1811F583#04000E5F0E620E76
(1605726423.749408) vcan0 1815F582#0001000000000000
(1605726423.750109) vcan0 1811F583#07000E650E520E85
(1605726423.750532) vcan0 1816F582#00118111000000
(1605726423.751134) vcan0 1811F583#0A000E5B0E750E94
(1605726423.751624) vcan0 1816F582#0012910D000000
(1605726423.752264) vcan0 1811F583#0D000E7E0E480E94
(1605726423.752609) vcan0 1816F582#00138000000000
(1605726423.753221) vcan0 1811F583#10000E760E630E63
(1605726423.753542) vcan0 1814F582#
(1605726423.754033) vcan0 1811F583#13000E890E800E4D
(1605726423.754385) vcan0 1833F582#
(1605726423.755008) vcan0 1811F583#16000E850E6B0E70
(1605726423.755638) vcan0 183BF4E8#0C01000000000000
(1605726423.756128) vcan0 1811F583#19000E890E760E67
(1605726423.756685) vcan0 183DF4E8#0311811100000085
(1605726423.757297) vcan0 1811F583#1C000E6F0E8C0E56
(1605726423.757643) vcan0 183DF4E8#0312910D00000094
(1605726423.758285) vcan0 1811F583#1F000E6C0E460E60
(1605726423.758850) vcan0 1811F583#22000E5A0E570E98
(1605726423.759440) vcan0 183DF4E8#0313800000000094
(1605726423.759971) vcan0 1811F583#25000E4E0E5B0E64
(1605726423.760785) vcan0 1811F583#28000E860E6C0E7C
(1605726423.761951) vcan0 1811F583#2B000E5A0E3F0E7B
(1605726423.762800) vcan0 1811F583#2E000E490E8E0E68
(1605726423.763793) vcan0 1812F583#0100424442414243
(1605726423.764772) vcan0 1812F583#0700424141424240
(1605726423.765515) vcan0 1813F583#
(1605726423.765868) vcan0 1833F582#
(1605726423.766858) vcan0 1815F583#0001000000000000
(1605726423.767763) vcan0 1816F583#00118111000000
(1605726423.769318) vcan0 1816F583#00129111000000
(1605726423.770110) vcan0 1816F583#0013A111000000
(1605726423.770672) vcan0 1814F583#
(1605726423.771514) vcan0 1833F583#
(1605726423.771978) vcan0 1841F582#00000000
(1605726423.775470) vcan0 183BF4E8#1001000000000000
(1605726423.777445) vcan0 183DF4E8#0411811100000000
(1605726423.779443) vcan0 183DF4E8#0412911100000000
(1605726423.781448) vcan0 183DF4E8#0413A11100000000
(1605726423.785515) vcan0 1833F583#
(1605726423.791661) vcan0 1841F583#00000000
(1605726423.809618) vcan0 1830E8F4#0800000000000000
(1605726423.863457) vcan0 1838F4E8#0000000000FFFFFF
(1605726423.910052) vcan0 1830E8F4#0800000000000000
(1605726423.929446) vcan0 1838F4E8#0000000000FFFFFF
(1605726424.117413) vcan0 181080F5#FFFF0E663E9DFFFF
(1605726424.119422) vcan0 183280F5#0100000000000000
(1605726424.121477) vcan0 183280F5#0200000000000000
(1605726424.123420) vcan0 184080F5#0100000000000000
(1605726424.123963) vcan0 1811F580#01000E390E7B0E8D
(1605726424.124769) vcan0 1811F580#04000E720E530E24
(1605726424.125750) vcan0 1811F580#07000E670E550EA7
(1605726424.126725) vcan0 1811F580#0A000E690E5A0E68
(1605726424.127760) vcan0 1811F580#0D000E700E860E74
(1605726424.128736) vcan0 1811F580#10000E6A0E750E69
(1605726424.129794) vcan0 1811F580#13000E540E9E0E58
(1605726424.130734) vcan0 1811F580#16000E750E700E86
(1605726424.131768) vcan0 1811F580#19000E840E770E5C
(1605726424.132744) vcan0 1811F580#1C000E7F0E850E52
(1605726424.133719) vcan0 1811F580#1F000E870E640E44
(1605726424.134741) vcan0 1811F580#22000E480E940E6F
(1605726424.135684) vcan0 1811F580#25000E590E4E0E94
(1605726424.136682) vcan0 1811F580#28000E6B0E5D0E5A
(1605726424.137465) vcan0 181081F5#FFFF0E663E9DFFFF
(1605726424.138097) vcan0 1811F580#2B000E700E4F0E58
(1605726424.138678) vcan0 1811F580#2E000E610E400E65
(1605726424.139481) vcan0 183281F5#0100000000000000
(1605726424.140167) vcan0 1812F580#0100424242404243
(1605726424.140645) vcan0 1812F580#0700434242444342
(1605726424.141400) vcan0 1811F581#01000E620E750E6D
(1605726424.141820) vcan0 1813F580#
(1605726424.142131) vcan0 183281F5#0200000000000000
(1605726424.142790) vcan0 1811F581#04000E5B0E540E50
(1605726424.143411) vcan0 1815F580#0001000000000000
(1605726424.143889) vcan0 1811F581#07000E710E830E58
(1605726424.144560) vcan0 1811F581#0A000E7A0E420E4C
(1605726424.145008) vcan0 1816F580#00129111000000
(1605726424.145564) vcan0 1811F581#0D000E380E320E65
(1605726424.146082) vcan0 1816F580#0013A111000000
(1605726424.146774) vcan0 1811F581#10000E9F0E3E0E4B
(1605726424.147337) vcan0 1814F580#
(1605726424.147744) vcan0 1811F581#13000E6B0E790E6A
(1605726424.148016) vcan0 1833F580#
(1605726424.148540) vcan0 1816F580#00118111000000
(1605726424.148913) vcan0 1811F581#16000E710E520E79
(1605726424.149484) vcan0 1811F581#19000E4D0E6C0E5F
(1605726424.150060) vcan0 184081F5#0100000000000000
(1605726424.150385) vcan0 1811F581#1C000E7B
(1605726424.151103) vcan0 183BF4E8#0401000000000000
(1605726424.151706) vcan0 1812F581#0100424343424343
(1605726424.152322) vcan0 183DF4E8#011291110000004C
(1605726424.152679) vcan0 1812F581#070042
(1605726424.153024) vcan0 1813F581#
(1605726424.153686) vcan0 183DF4E8#0113A11100000065
(1605726424.154354) vcan0 1815F581#0001000000000000
(1605726424.155311) vcan0 1816F581#00118111000000
(1605726424.156299) vcan0 1816F581#0012910D000000
(1605726424.157323) vcan0 1816F581#00138000000000
(1605726424.158106) vcan0 1814F581#
(1605726424.159088) vcan0 1833F581#
(1605726424.161409) vcan0 183DF4E8#011181110000006A
(1605726424.162449) vcan0 1833F580#
(1605726424.163454) vcan0 183BF4E8#0801000000000000
(1605726424.165406) vcan0 183DF4E8#0211811100000000
(1605726424.167403) vcan0 183DF4E8#0212910D00000000
(1605726424.168057) vcan0 1841F580#00000000
(1605726424.169469) vcan0 183DF4E8#0213800000000000
(1605726424.170030) vcan0 1833F581#
(1605726424.171449) vcan0 181082F5#FFFF0E663E9DFFFF
(1605726424.172914) vcan0 1811F582#01000E770E520E73
(1605726424.173471) vcan0 183282F5#0100000000000000
(1605726424.174033) vcan0 1811F582#04000E760E870E6E
(1605726424.174937) vcan0 1811F582#07000E5D0E640E54
(1605726424.175478) vcan0 183282F5#0200000000000000
(1605726424.176027) vcan0 1811F582#0A000E5E0E670E58
(1605726424.176594) vcan0 1841F581#00000000
(1605726424.177039) vcan0 1811F582#0D000E500E7A0E56
(1605726424.177710) vcan0 184082F5#0100000000000000
(1605726424.178346) vcan0 1811F582#10000E600E2C0E2C
(1605726424.179088) vcan0 1811F582#13000E700E520E74
(1605726424.179945) vcan0 1811F582#16000E6A0E570E4F
(1605726424.180922) vcan0 1811F582#19000E3A0E510E6B
(1605726424.181776) vcan0 1811F582#1C000E50
(1605726424.182920) vcan0 1812F582#0100434342434543
(1605726424.183718) vcan0 1812F582#070042
(1605726424.184648) vcan0 1813F582#
(1605726424.185957) vcan0 1815F582#0001000000000000
(1605726424.186952) vcan0 1816F582#00118111000000
(1605726424.187940) vcan0 1816F582#0012910D000000
(1605726424.188912) vcan0 1816F582#00138000000000
(1605726424.189441) vcan0 183BF4E8#0C01000000000000
(1605726424.189772) vcan0 1814F582#
(1605726424.190637) vcan0 1833F582#
(1605726424.191400) vcan0 183DF4E8#0311811100000000
(1605726424.191794) vcan0 1833F582#
(1605726424.193369) vcan0 183DF4E8#0312910D00000000
(1605726424.195444) vcan0 183DF4E8#0313800000000000
(1605726424.197441) vcan0 181083F5#FFFF0E663E9DFFFF
(1605726424.199425) vcan0 183283F5#0100000000000000
(1605726424.201457) vcan0 183283F5#0200000000000000
(1605726424.203417) vcan0 184083F5#0100000000000000
(1605726424.216784) vcan0 1841F582#00000000
(1605726424.227799) vcan0 1811F583#01000E730E780E62
(1605726424.228803) vcan0 1811F583#04000E5F0E620E76
(1605726424.229799) vcan0 1811F583#07000E650E520E85
(1605726424.230788) vcan0 1811F583#0A000E5B0E750E94
(1605726424.231948) vcan0 1811F583#0D000E7E0E480E94
(1605726424.232840) vcan0 1811F583#10000E760E630E63
(1605726424.233821) vcan0 1811F583#13000E890E800E4D
(1605726424.234786) vcan0 1811F583#16000E850E6B0E70
(1605726424.235811) vcan0 1811F583#19000E890E760E67
(1605726424.236871) vcan0 1811F583#1C000E6F0E8C0E57
(1605726424.237847) vcan0 1811F583#1F000E6C0E460E61
(1605726424.238808) vcan0 1811F583#22000E5A0E570E98
(1605726424.239789) vcan0 1811F583#25000E4E0E5B0E64
(1605726424.240848) vcan0 1811F583#28000E860E6C0E7C
(1605726424.241825) vcan0 1811F583#2B000E5A0E3F0E7B
(1605726424.242817) vcan0 1811F583#2E000E490E8E0E68
(1605726424.243787) vcan0 1812F583#0100424442414243
(1605726424.244809) vcan0 1812F583#0700424141424240
(1605726424.245555) vcan0 1813F583#
(1605726424.246894) vcan0 1815F583#0001000000000000
(1605726424.247835) vcan0 1816F583#00118111000000
(1605726424.248768) vcan0 1816F583#00129111000000
(1605726424.249779) vcan0 1816F583#0013A111000000
(1605726424.250593) vcan0 1814F583#
(1605726424.251570) vcan0 1833F583#
(1605726424.263385) vcan0 183ECCE8#4139E9391A444540
(1605726424.265388) vcan0 183FCCE8#0450002015E33E9D
(1605726424.266083) vcan0 1833F583#
(1605726424.267376) vcan0 1840CCE8#3EDAAD883E943EA8
(1605726424.269410) vcan0 183BF4E8#1001000000000000
(1605726424.271410) vcan0 183DF4E8#0411811100000000
(1605726424.272149) vcan0 1841F583#00000000
(1605726424.273418) vcan0 183DF4E8#0412911100000000
(1605726424.275392) vcan0 183DF4E8#0413A11100000000
(1605726424.315875) vcan0 1830E8F4#0800000000000000
(1605726424.321410) vcan0 1838F4E8#0000000000FFFFFF
(1605726424.416363) vcan0 1830E8F4#0800000000000000
(1605726424.421388) vcan0 1838F4E8#0000000000FFFFFF
(1605726424.618148) vcan0 181080F5#FFFF0E663E9DFFFF
(1605726424.619385) vcan0 183280F5#0100000000000000
(1605726424.621373) vcan0 183280F5#0200000000000000
(1605726424.623377) vcan0 184080F5#0100000000000000
(1605726424.637360) vcan0 181081F5#FFFF0E663E9DFFFF
(1605726424.637898) vcan0 1811F580#01000E380E7B0E8D
(1605726424.638781) vcan0 1811F580#04000E720E530E24
(1605726424.639464) vcan0 183281F5#0100000000000000
(1605726424.639938) vcan0 1811F580#07000E670E550EA7
(1605726424.640696) vcan0 1811F580#0A000E690E5A0E68
(1605726424.641496) vcan0 183281F5#0200000000000000
(1605726424.642092) vcan0 1811F580#0D000E700E860E74
(1605726424.642728) vcan0 1811F580#10000E6A0E750E69
(1605726424.643376) vcan0 184081F5#0100000000000000
(1605726424.643999) vcan0 1811F580#13000E540E9E0E58
(1605726424.644714) vcan0 1811F580#16000E750E700E86
(1605726424.645818) vcan0 1811F580#19000E840E770E5C
(1605726424.646708) vcan0 1811F580#1C000E7F0E850E52
(1605726424.647358) vcan0 1811F581#01000E620E750E6D
(1605726424.647899) vcan0 1811F580#1F000E870E640E44
(1605726424.648518) vcan0 1811F581#04000E5B0E540E50
(1605726424.649048) vcan0 1811F580#22000E480E940E6F
(1605726424.649648) vcan0 1811F581#07000E710E830E58
(1605726424.650230) vcan0 1811F580#25000E590E4E0E93
(1605726424.650664) vcan0 1811F581#0A000E7A0E420E4C
(1605726424.651333) vcan0 1811F580#28000E6A0E5D0E5A
(1605726424.651962) vcan0 1811F580#2B000E700E4F0E58
(1605726424.652358) vcan0 1811F581#0D000E380E320E65
(1605726424.652931) vcan0 1811F580#2E000E610E400E65
(1605726424.653495) vcan0 1811F581#13000E6B0E790E6A
(1605726424.654192) vcan0 1811F581#10000E9F0E3D0E4B
(1605726424.654664) vcan0 1811F581#16000E720E520E79
(1605726424.655252) vcan0 1812F580#0100424242404243
(1605726424.655744) vcan0 1811F581#19000E4D0E6C0E5F
(1605726424.656285) vcan0 1812F580#0700434242444342
(1605726424.656802) vcan0 1811F581#1C000E7B
(1605726424.657283) vcan0 1815F580#0001000000000000
(1605726424.657856) vcan0 1812F581#0100424343424343
(1605726424.658257) vcan0 1812F581#070042
(1605726424.658758) vcan0 1816F580#00129111000000
(1605726424.659441) vcan0 1816F580#00118111000000
(1605726424.659850) vcan0 1813F581#
(1605726424.660281) vcan0 1816F580#0013A111000000
(1605726424.660632) vcan0 1813F580#
(1605726424.660944) vcan0 1814F580#
(1605726424.661353) vcan0 1815F581#0001000000000000
(1605726424.661775) vcan0 1816F581#00118111000000
(1605726424.662391) vcan0 1816F581#0012910D000000
(1605726424.662658) vcan0 1833F580#
(1605726424.663054) vcan0 1833F580#
(1605726424.663436) vcan0 1816F581#00138000000000
(1605726424.664134) vcan0 1814F581#
(1605726424.665179) vcan0 1833F581#
(1605726424.666115) vcan0 1833F581#
(1605726424.667225) vcan0 1841F581#00000000
(1605726424.667850) vcan0 181082F5#FFFF0E663E9DFFFF
(1605726424.669396) vcan0 183282F5#0100000000000000
(1605726424.671383) vcan0 183282F5#0200000000000000
(1605726424.673389) vcan0 184082F5#0100000000000000
(1605726424.681387) vcan0 183BF4E8#0401000000000000
(1605726424.682142) vcan0 1841F580#00000000
(1605726424.683370) vcan0 183DF4E8#0112911100000043
(1605726424.685381) vcan0 183DF4E8#0111811100000043
(1605726424.687427) vcan0 183DF4E8#0113A11100000043
(1605726424.689375) vcan0 183BF4E8#0801000000000000
(1605726424.691368) vcan0 183DF4E8#0211811100000000
(1605726424.693362) vcan0 183DF4E8#0212910D00000000
(1605726424.693917) vcan0 1811F582#01000E770E520E73
(1605726424.694933) vcan0 1811F582#04000E770E870E6E
(1605726424.695477) vcan0 183DF4E8#0213800000000000
(1605726424.696030) vcan0 1811F582#07000E5D0E650E54
(1605726424.696954) vcan0 1811F582#0A000E5E0E670E59
(1605726424.697544) vcan0 181083F5#FFFF0E663E9DFFFF
(1605726424.698057) vcan0 1811F582#0D000E500E7A0E56
(1605726424.699065) vcan0 1811F582#10000E600E2D0E2C
(1605726424.699531) vcan0 183283F5#0100000000000000
(1605726424.700102) vcan0 1811F582#13000E6F0E530E74
(1605726424.700949) vcan0 1811F582#16000E6B0E570E50
(1605726424.701519) vcan0 183283F5#0200000000000000
(1605726424.702064) vcan0 1811F582#19000E3A0E510E6B
(1605726424.702788) vcan0 1811F582#1C000E50
(1605726424.703387) vcan0 184083F5#0100000000000000
(1605726424.703950) vcan0 1811F583#01000E730E780E62
(1605726424.704689) vcan0 1812F582#0100434342434543
(1605726424.705082) vcan0 1811F583#04000E600E620E75
(1605726424.705512) vcan0 1812F582#070042
(1605726424.705995) vcan0 1811F583#07000E650E520E85
(1605726424.706348) vcan0 1813F582#
(1605726424.707133) vcan0 1811F583#0A000E5B0E750E94
(1605726424.707466) vcan0 1815F582#0001000000000000
(1605726424.707938) vcan0 1811F583#0D000E7D0E470E94
(1605726424.708588) vcan0 1816F582#00118111000000
(1605726424.709051) vcan0 1811F583#10000E760E630E63
(1605726424.709597) vcan0 1816F582#0012910D000000
(1605726424.710116) vcan0 1811F583#13000E890E800E4E
(1605726424.710815) vcan0 1816F582#00138000000000
(1605726424.711171) vcan0 1811F583#16000E850E6B0E70
(1605726424.711795) vcan0 1814F582#
(1605726424.712155) vcan0 1811F583#19000E890E760E67
(1605726424.712560) vcan0 1833F582#
(1605726424.712905) vcan0 1811F583#1C000E6E0E8C0E57
(1605726424.713215) vcan0 1833F582#
(1605726424.713872) vcan0 1811F583#1F000E6C0E460E60
(1605726424.714951) vcan0 1811F583#22000E5A0E570E98
(1605726424.715889) vcan0 1811F583#25000E4E0E5B0E63
(1605726424.716847) vcan0 1811F583#28000E860E6C0E7C
(1605726424.717828) vcan0 1811F583#2B000E5A0E3F0E7B
(1605726424.718821) vcan0 1811F583#2E000E490E8E0E68
(1605726424.719815) vcan0 1812F583#0100424442414243
(1605726424.720841) vcan0 1812F583#0700424141424140
(1605726424.721607) vcan0 1813F583#
(1605726424.722916) vcan0 1815F583#0001000000000000
(1605726424.723824) vcan0 1816F583#00118111000000
(1605726424.724842) vcan0 1816F583#00129111000000
(1605726424.725855) vcan0 1816F583#0013A111000000
(1605726424.726556) vcan0 1814F583#
(1605726424.727595) vcan0 1833F583#
(1605726424.728566) vcan0 1833F583#
(1605726424.728892) vcan0 1841F582#00000000
(1605726424.737382) vcan0 183BF4E8#0C01000000000000
(1605726424.739361) vcan0 183DF4E8#0311811100000094
(1605726424.741356) vcan0 183DF4E8#0312910D00000063
(1605726424.743376) vcan0 183DF4E8#031380000000004E
(1605726424.745384) vcan0 183BF4E8#1001000000000000
(1605726424.747364) vcan0 183DF4E8#0411811100000000
(1605726424.748031) vcan0 1841F583#00000000
(1605726424.749363) vcan0 183DF4E8#0412911100000000
(1605726424.751361) vcan0 183DF4E8#0413A11100000000
(1605726424.771343) vcan0 1830CCE8#010139B2393339D2
(1605726424.773340) vcan0 1830CCE8#020439D439D039C3
(1605726424.775332) vcan0 1830CCE8#030739D639C2398F
(1605726424.777334) vcan0 1830CCE8#040A39A43976395E
(1605726424.779337) vcan0 1830CCE8#050D399F39983960
(1605726424.781356) vcan0 1830CCE8#0610396E396C39A7
(1605726424.783330) vcan0 1830CCE8#0713399339B339B7
(1605726424.785334) vcan0 1830CCE8#081639723980391B
(1605726424.787347) vcan0 1830CCE8#09193986394639AD
(1605726424.789324) vcan0 1830CCE8#0A1C398E39E939CE
(1605726424.791366) vcan0 1830CCE8#0B1F39CF39AE39D4
(1605726424.793315) vcan0 1830CCE8#0C22399539A93992
(1605726424.795345) vcan0 1830CCE8#0D25398139BA0000
(1605726424.797336) vcan0 1831CCE8#0101424242404243
(1605726424.799917) vcan0 1831CCE8#0207434242444342
(1605726424.801334) vcan0 1831CCE8#030D424343424343
(1605726424.803349) vcan0 1831CCE8#0413424343424345
(1605726424.805368) vcan0 1831CCE8#0519434242444241
(1605726424.807388) vcan0 1831CCE8#061F424342414142
(1605726424.809431) vcan0 1831CCE8#07254140FFFFFFFF
(1605726424.811443) vcan0 1834CCE8#0104040700484144
(1605726424.813392) vcan0 1834CCE8#023E9D3E9D3EAC50
(1605726424.815400) vcan0 1834CCE8#0315E3166600F163
(1605726424.818074) vcan0 1834CCE8#043EF83E62470564
(1605726424.819369) vcan0 1834CCE8#0500C71AA7260200
(1605726424.821382) vcan0 1834CCE8#0600FF000000FF00
(1605726424.822754) vcan0 1830E8F4#0800000000000000
(1605726424.823443) vcan0 1838CCE8#0000FF20FFFFFFFF
(1605726424.825423) vcan0 183DCCE8#0100000000000000
(1605726424.827424) vcan0 183DCCE8#02000000FFFFFFFF
(1605726424.829405) vcan0 1840CCE8#3EDAAF183E943EA8
(1605726424.831443) vcan0 1838F4E8#0000000000FFFFFF
(1605726424.922141) vcan0 1830E8F4#0800000000000000
(1605726424.925330) vcan0 1838F4E8#0000000000FFFFFF
(1605726425.117314) vcan0 181080F5#FFFF0E663E9DFFFF
(1605726425.119327) vcan0 183280F5#0100000000000000
(1605726425.121313) vcan0 183280F5#0200000000000000
(1605726425.122689) vcan0 1811F580#01000E390E7B0E8D
(1605726425.123311) vcan0 184080F5#0100000000000000
(1605726425.123877) vcan0 1811F580#04000E720E530E24
(1605726425.124694) vcan0 1811F580#07000E670E550EA7
(1605726425.125708) vcan0 1811F580#0A000E690E5A0E68
(1605726425.126736) vcan0 1811F580#0D000E700E860E73
(1605726425.127727) vcan0 1811F580#10000E6A0E750E69
(1605726425.128773) vcan0 1811F580#13000E540E9E0E58
(1605726425.129746) vcan0 1811F580#16000E750E700E86
(1605726425.130720) vcan0 1811F580#19000E840E770E5C
(1605726425.131794) vcan0 1811F580#1C000E7F0E850E52
(1605726425.132733) vcan0 1811F580#1F000E870E640E44
(1605726425.133695) vcan0 1811F580#22000E480E940E6F
(1605726425.134703) vcan0 1811F580#25000E5A0E4E0E93
(1605726425.135678) vcan0 1811F580#28000E6A0E5D0E5A
(1605726425.136689) vcan0 1811F580#2B000E700E4F0E58
(1605726425.137337) vcan0 181081F5#FFFF0E663E9DFFFF
(1605726425.137859) vcan0 1811F580#2E000E610E400E66
(1605726425.138703) vcan0 1812F580#0100424242404243
(1605726425.139343) vcan0 183281F5#0100000000000000
(1605726425.139865) vcan0 1812F580#0700434242444342
(1605726425.140394) vcan0 1813F580#
(1605726425.141369) vcan0 183281F5#0200000000000000
(1605726425.141951) vcan0 1815F580#0001000000000000
(1605726425.142649) vcan0 1816F580#00118111000000
(1605726425.143378) vcan0 184081F5#0100000000000000
(1605726425.143848) vcan0 1816F580#00129111000000
(1605726425.144480) vcan0 1811F581#01000E620E750E6D
(1605726425.144945) vcan0 1816F580#0013A111000000
(1605726425.145493) vcan0 1811F581#04000E5B0E540E50
(1605726425.145776) vcan0 1814F580#
(1605726425.146339) vcan0 1811F581#07000E710E830E58
(1605726425.146601) vcan0 1833F580#
(1605726425.147232) vcan0 183BF4E8#0401000000000000
(1605726425.147759) vcan0 1811F581#0A000E790E420E4C
(1605726425.148348) vcan0 183DF4E8#0111811100000000
(1605726425.148895) vcan0 1811F581#0D000E380E320E65
(1605726425.149511) vcan0 1811F581#10000E9F0E3D0E4B
(1605726425.150216) vcan0 183DF4E8#0112911100000000
(1605726425.150610) vcan0 1811F581#13000E6B0E790E6A
(1605726425.151441) vcan0 183DF4E8#0113A1110000006D
(1605726425.151894) vcan0 1811F581#16000E720E520E79
(1605726425.152404) vcan0 1811F581#19000E4D0E6C0E5F
(1605726425.153290) vcan0 1811F581#1C000E7B
(1605726425.154419) vcan0 1812F581#0100424343424343
(1605726425.155269) vcan0 1812F581#070042
(1605726425.156117) vcan0 1813F581#
(1605726425.157367) vcan0 1815F581#0001000000000000
(1605726425.158330) vcan0 1816F581#00118111000000
(1605726425.159341) vcan0 1816F581#0012910D000000
(1605726425.160310) vcan0 1816F581#00138000000000
(1605726425.161044) vcan0 1814F581#
(1605726425.161329) vcan0 1833F580#
(1605726425.167304) vcan0 181082F5#FFFF0E663E9DFFFF
(1605726425.167710) vcan0 1841F580#00000000
(1605726425.169391) vcan0 183282F5#0100000000000000
(1605726425.171326) vcan0 183282F5#0200000000000000
(1605726425.172916) vcan0 1811F582#01000E770E520E73
(1605726425.173492) vcan0 184082F5#0100000000000000
(1605726425.174023) vcan0 1811F582#04000E770E870E6E
(1605726425.174945) vcan0 1811F582#07000E5D0E650E54
(1605726425.175992) vcan0 1811F582#0A000E5E0E670E59
(1605726425.176277) vcan0 1833F581#
(1605726425.176902) vcan0 1811F582#0D000E500E7A0E56
(1605726425.177948) vcan0 1811F582#10000E600E2C0E2C
(1605726425.179033) vcan0 1811F582#13000E6F0E530E74
(1605726425.179958) vcan0 1811F582#16000E6B0E570E50
(1605726425.180908) vcan0 1811F582#19000E3A0E510E6B
(1605726425.181227) vcan0 1833F581#
(1605726425.181765) vcan0 1811F582#1C000E50
(1605726425.182938) vcan0 1812F582#0100434342434543
(1605726425.183457) vcan0 183BF4E8#0801000000000000
(1605726425.183848) vcan0 1812F582#070042
(1605726425.184635) vcan0 1813F582#
(1605726425.185308) vcan0 183DF4E8#0211811100000000
(1605726425.185929) vcan0 1815F582#0001000000000000
(1605726425.186913) vcan0 1816F582#00118111000000
(1605726425.187453) vcan0 183DF4E8#0212910D00000000
(1605726425.187968) vcan0 1816F582#0012910D000000
(1605726425.188395) vcan0 1841F581#00000000
(1605726425.189117) vcan0 1816F582#00138000000000
(1605726425.189538) vcan0 183DF4E8#0213800000000000
(1605726425.189801) vcan0 1814F582#
(1605726425.190731) vcan0 1833F582#
(1605726425.191846) vcan0 1833F582#
(1605726425.193314) vcan0 183BF4E8#0C01000000000000
(1605726425.195316) vcan0 183DF4E8#0311811100000000
(1605726425.197299) vcan0 183DF4E8#0312910D00000000
(1605726425.199339) vcan0 183DF4E8#0313800000000000
(1605726425.201300) vcan0 181083F5#FFFF0E663E9DFFFF
(1605726425.203715) vcan0 183283F5#0100000000000000
(1605726425.205225) vcan0 183283F5#0200000000000000
(1605726425.207228) vcan0 184083F5#0100000000000000
(1605726425.207700) vcan0 1841F582#00000000
(1605726425.227735) vcan0 1811F583#01000E730E780E62
(1605726425.228724) vcan0 1811F583#04000E600E620E75
(1605726425.229726) vcan0 1811F583#07000E650E520E85
(1605726425.230716) vcan0 1811F583#0A000E5B0E750E94
(1605726425.231726) vcan0 1811F583#0D000E7D0E480E94
(1605726425.232723) vcan0 1811F583#10000E760E630E63
(1605726425.233724) vcan0 1811F583#13000E890E800E4E
(1605726425.234714) vcan0 1811F583#16000E850E6B0E71
(1605726425.235723) vcan0 1811F583#19000E890E760E67
(1605726425.236723) vcan0 1811F583#1C000E6E0E8C0E57
(1605726425.237756) vcan0 1811F583#1F000E6C0E460E60
(1605726425.238716) vcan0 1811F583#22000E5A0E570E98
(1605726425.239729) vcan0 1811F583#25000E4E0E5B0E63
(1605726425.240734) vcan0 1811F583#28000E860E6C0E7C
(1605726425.241737) vcan0 1811F583#2B000E5A0E3F0E7B
(1605726425.242741) vcan0 1811F583#2E000E480E8E0E68
(1605726425.243717) vcan0 1812F583#0100424442414243
(1605726425.244730) vcan0 1812F583#0700424141424140
(1605726425.245468) vcan0 1813F583#
(1605726425.246753) vcan0 1815F583#0001000000000000
(1605726425.247693) vcan0 1816F583#00118111000000
(1605726425.248725) vcan0 1816F583#00129111000000
(1605726425.249308) vcan0 183BF4E8#1001000000000000
(1605726425.249820) vcan0 1816F583#0013A111000000
(1605726425.250454) vcan0 1814F583#
(1605726425.251441) vcan0 1833F583#
(1605726425.253219) vcan0 183DF4E8#0411811100000000
(1605726425.255230) vcan0 183DF4E8#0412911100000000
(1605726425.257210) vcan0 183DF4E8#0413A11100000000
(1605726425.265575) vcan0 1833F583#
(1605726425.271731) vcan0 1841F583#00000000
(1605726425.329314) vcan0 1830E8F4#0800000000000000
(1605726425.333369) vcan0 1838F4E8#0000000000FFFFFF
(1605726425.405313) vcan0 183ECCE8#4139E9391A444540
(1605726425.407315) vcan0 183FCCE8#0450002015E33E9D
(1605726425.409362) vcan0 1840CCE8#3EDAB0F83E943EA8
(1605726425.428035) vcan0 1830E8F4#0800000000000000
(1605726425.437339) vcan0 1838F4E8#0000000000FFFFFF
(1605726425.618078) vcan0 181080F5#FFFF0E663E9DFFFF
(1605726425.619330) vcan0 183280F5#0100000000000000
(1605726425.621313) vcan0 183280F5#0200000000000000
(1605726425.623323) vcan0 184080F5#0100000000000000
(1605726425.637300) vcan0 181081F5#FFFF0E663E9DFFFF
(1605726425.639315) vcan0 183281F5#0100000000000000
(1605726425.641310) vcan0 183281F5#0200000000000000
(1605726425.642789) vcan0 1811F580#01000E390E7B0E8D
(1605726425.643317) vcan0 184081F5#0100000000000000
(1605726425.643858) vcan0 1811F580#04000E720E530E24
(1605726425.644742) vcan0 1811F580#07000E670E550EA7
(1605726425.645731) vcan0 1811F580#0A000E690E5A0E68
(1605726425.646744) vcan0 1811F580#0D000E700E860E73
(1605726425.647783) vcan0 1811F580#10000E6A0E750E69
(1605726425.648772) vcan0 1811F580#13000E540E9E0E58
(1605726425.649788) vcan0 1811F580#16000E750E700E86
(1605726425.650789) vcan0 1811F580#19000E840E770E5C
(1605726425.651801) vcan0 1811F580#1C000E7F0E850E52
(1605726425.652797) vcan0 1811F580#1F000E870E640E44
(1605726425.653787) vcan0 1811F580#22000E480E940E6F
(1605726425.654794) vcan0 1811F580#25000E5A0E4E0E93
(1605726425.655736) vcan0 1811F580#28000E6A0E5D0E5A
(1605726425.656811) vcan0 1811F580#2B000E700E4F0E58
(1605726425.657812) vcan0 1811F580#2E000E610E400E65
(1605726425.658819) vcan0 1812F580#0100424242404243
(1605726425.659782) vcan0 1812F580#0700434242444342
(1605726425.660424) vcan0 1813F580#
(1605726425.661776) vcan0 1815F580#0001000000000000
(1605726425.662759) vcan0 1816F580#00118111000000
(1605726425.663739) vcan0 1816F580#00129111000000
(1605726425.664783) vcan0 1816F580#0013A111000000
(1605726425.665324) vcan0 183BF4E8#0401000000000000
(1605726425.665647) vcan0 1814F580#
(1605726425.666469) vcan0 1833F580#
(1605726425.667325) vcan0 183DF4E8#0111811100000000
(1605726425.669296) vcan0 181082F5#FFFF0E663E9DFFFF
(1605726425.671325) vcan0 183282F5#0100000000000000
(1605726425.673357) vcan0 183282F5#0200000000000000
(1605726425.675319) vcan0 184082F5#0100000000000000
(1605726425.677301) vcan0 183DF4E8#0112911100000000
(1605726425.679314) vcan0 183DF4E8#0113A11100000000
(1605726425.680528) vcan0 1833F580#
(1605726425.686616) vcan0 1841F580#00000000
(1605726425.695399) vcan0 1811F581#01000E620E750E6D
(1605726425.696414) vcan0 1811F581#04000E5B0E540E50
(1605726425.697323) vcan0 181083F5#FFFF0E663E9DFFFF
(1605726425.697831) vcan0 1811F581#07000E710E830E58
(1605726425.698382) vcan0 1811F581#0A000E7A0E420E4C
(1605726425.699333) vcan0 183283F5#0100000000000000
(1605726425.699893) vcan0 1811F581#0D000E380E320E65
(1605726425.700431) vcan0 1811F581#10000E9F0E3D0E4B
(1605726425.701346) vcan0 183283F5#0200000000000000
(1605726425.701996) vcan0 1811F581#13000E6B0E790E6A
(1605726425.702355) vcan0 1811F581#16000E720E520E79
(1605726425.703350) vcan0 184083F5#0100000000000000
(1605726425.703862) vcan0 1811F581#19000E4D0E6C0E5F
(1605726425.704301) vcan0 1811F581#1C000E7B
(1605726425.705405) vcan0 1812F581#0100424343424343
(1605726425.706210) vcan0 1812F581#070042
(1605726425.706952) vcan0 1811F583#01000E720E780E62
(1605726425.707291) vcan0 1813F581#
(1605726425.707831) vcan0 1811F583#04000E600E620E75
(1605726425.708463) vcan0 1815F581#0001000000000000
(1605726425.709064) vcan0 1811F583#07000E650E520E85
(1605726425.709506) vcan0 1816F581#00118111000000
(1605726425.710081) vcan0 1811F583#0A000E5B0E750E94
(1605726425.710592) vcan0 1816F581#0012910D000000
(1605726425.711131) vcan0 1811F583#0D000E7D0E470E94
(1605726425.711668) vcan0 1816F581#00138000000000
(1605726425.712231) vcan0 1811F583#10000E760E630E63
(1605726425.712528) vcan0 1814F581#
(1605726425.713142) vcan0 1811F583#13000E890E800E4E
(1605726425.713872) vcan0 1811F583#16000E850E6B0E71
(1605726425.714960) vcan0 1811F583#19000E890E760E66
(1605726425.715981) vcan0 1811F583#1C000E6F0E8C0E56
(1605726425.716896) vcan0 1811F583#1F000E6C0E460E61
(1605726425.717865) vcan0 1811F583#22000E5A0E570E98
(1605726425.718923) vcan0 1811F583#25000E4E0E5B0E63
(1605726425.719902) vcan0 1811F583#28000E860E6C0E7C
(1605726425.720899) vcan0 1811F583#2B000E5A0E3F0E7B
(1605726425.721477) vcan0 183BF4E8#0801000000000000
(1605726425.721978) vcan0 1811F583#2E000E490E8E0E68
(1605726425.722934) vcan0 1812F583#0100424442414243
(1605726425.723410) vcan0 183DF4E8#0211811100000085
(1605726425.723960) vcan0 1812F583#0700424141424140
(1605726425.724556) vcan0 1813F583#
(1605726425.725300) vcan0 183DF4E8#0212910D00000094
(1605726425.725904) vcan0 1815F583#0001000000000000
(1605726425.726501) vcan0 1811F582#01000E770E520E73
(1605726425.727050) vcan0 1811F582#04000E770E870E6E
(1605726425.727508) vcan0 1816F583#00118111000000
(1605726425.728081) vcan0 1811F582#07000E5D0E650E54
(1605726425.728590) vcan0 1816F583#00129111000000
(1605726425.729158) vcan0 1811F582#0A000E5E0E670E59
(1605726425.729736) vcan0 1816F583#0013A111000000
(1605726425.730234) vcan0 1811F582#0D000E500E7A0E56
(1605726425.730569) vcan0 1814F583#
(1605726425.731183) vcan0 1811F582#10000E600E2C0E2C
(1605726425.731524) vcan0 1833F583#
(1605726425.731959) vcan0 183DF4E8#0213800000000094
(1605726425.732515) vcan0 1811F582#13000E6F0E530E74
(1605726425.733045) vcan0 1811F582#16000E6A0E570E4F
(1605726425.733662) vcan0 183DF4E8#041181110000006E
(1605726425.734140) vcan0 1811F582#19000E3A0E510E6B
(1605726425.734777) vcan0 183BF4E8#1001000000000000
(1605726425.735183) vcan0 1811F582#1C000E51
(1605726425.735832) vcan0 183DF4E8#0412911100000054
(1605726425.736309) vcan0 1812F582#0100434342434543
(1605726425.736751) vcan0 1812F582#070042
(1605726425.737400) vcan0 183DF4E8#0413A11100000059
(1605726425.737722) vcan0 1813F582#
(1605726425.739029) vcan0 1815F582#0001000000000000
(1605726425.739979) vcan0 1816F582#00118111000000
(1605726425.740974) vcan0 1816F582#0012910D000000
(1605726425.741998) vcan0 1816F582#00138000000000
(1605726425.742674) vcan0 1814F582#
(1605726425.743683) vcan0 1833F582#
(1605726425.744675) vcan0 1833F582#
(1605726425.745854) vcan0 1841F582#00000000
(1605726425.747611) vcan0 1833F583#
(1605726425.749391) vcan0 183BF4E8#0C01000000000000
(1605726425.751301) vcan0 183DF4E8#0311811100000000
(1605726425.753302) vcan0 183DF4E8#0312910D00000000
(1605726425.753718) vcan0 1841F583#00000000
(1605726425.755345) vcan0 183DF4E8#0313800000000000
(1605726425.772104) vcan0 1833F581#
(1605726425.777101) vcan0 1833F581#
(1605726425.783250) vcan0 1841F581#00000000
(1605726425.830361) vcan0 1830E8F4#0800000000000000
(1605726425.833335) vcan0 1838F4E8#0000000000FFFFFF
(1605726425.893279) vcan0 1830CCE8#010139B3393339D2
(1605726425.895282) vcan0 1830CCE8#020439D339D039C3
(1605726425.897322) vcan0 1830CCE8#030739D639C2398F
(1605726425.899286) vcan0 1830CCE8#040A39A53976395E
(1605726425.901271) vcan0 1830CCE8#050D399F39983960
(1605726425.903262) vcan0 1830CCE8#0610396E396C39A7
(1605726425.905258) vcan0 1830CCE8#0713399339B339B7
(1605726425.907479) vcan0 1830CCE8#081639723980391A
(1605726425.909283) vcan0 1830CCE8#09193984394739AC
(1605726425.911267) vcan0 1830CCE8#0A1C398E39E939CE
(1605726425.913312) vcan0 1830CCE8#0B1F39CF39AF39D4
(1605726425.915312) vcan0 1830CCE8#0C22399439AA3992
(1605726425.917288) vcan0 1830CCE8#0D25398139BA0000
(1605726425.919272) vcan0 1831CCE8#0101424242404243
(1605726425.921270) vcan0 1831CCE8#0207434242444342
(1605726425.923277) vcan0 1831CCE8#030D424343424343
(1605726425.925258) vcan0 1831CCE8#0413424343424345
(1605726425.927276) vcan0 1831CCE8#0519434242444241
(1605726425.929266) vcan0 1831CCE8#061F424342414142
(1605726425.931296) vcan0 1831CCE8#07254140FFFFFFFF
(1605726425.933281) vcan0 1834CCE8#0104040700484144
(1605726425.934069) vcan0 1830E8F4#0800000000000000
(1605726425.935263) vcan0 1834CCE8#023E9D3E9D3EAC50
(1605726425.937267) vcan0 1834CCE8#0315E3166600F163
(1605726425.939279) vcan0 1834CCE8#043EF83E62470564
(1605726425.941269) vcan0 1834CCE8#0500C71AA7260200
(1605726425.943312) vcan0 1834CCE8#0600FF000000FF00
(1605726425.945303) vcan0 1838CCE8#0000FF20FFFFFFFF
(1605726425.947315) vcan0 183DCCE8#0100000000000000
(1605726425.949344) vcan0 183DCCE8#02000000FFFFFFFF
(1605726425.951253) vcan0 1840CCE8#3EDAB2883E943EA8
(1605726425.953342) vcan0 1838F4E8#0000000000FFFFFF
(1605726426.117276) vcan0 181080F5#FFFF0E663E9DFFFF
(1605726426.119268) vcan0 183280F5#0100000000000000
(1605726426.121271) vcan0 183280F5#0200000000000000
(1605726426.122756) vcan0 1811F580#01000E390E7B0E8D
(1605726426.123373) vcan0 184080F5#0100000000000000
(1605726426.123964) vcan0 1811F580#04000E720E530E24
(1605726426.124766) vcan0 1811F580#07000E670E550EA7
(1605726426.125828) vcan0 1811F580#0A000E690E5A0E68
(1605726426.126796) vcan0 1811F580#0D000E700E860E73
(1605726426.127743) vcan0 1811F580#10000E6A0E750E69
(1605726426.128786) vcan0 1811F580#13000E540E9E0E58
(1605726426.129729) vcan0 1811F580#16000E750E700E86
(1605726426.130816) vcan0 1811F580#19000E840E770E5C
(1605726426.131878) vcan0 1811F580#1C000E800E850E52
(1605726426.132753) vcan0 1811F580#1F000E870E640E44
(1605726426.133789) vcan0 1811F580#22000E480E940E6F
(1605726426.134741) vcan0 1811F580#25000E5A0E4E0E93
(1605726426.135743) vcan0 1811F580#28000E6A0E5D0E5A
(1605726426.136822) vcan0 1811F580#2B000E700E4F0E58
(1605726426.137315) vcan0 181081F5#FFFF0E663E9DFFFF
(1605726426.137894) vcan0 1811F580#2E000E610E400E66
(1605726426.138754) vcan0 1812F580#0100424242404243
(1605726426.139304) vcan0 183281F5#0100000000000000
(1605726426.139916) vcan0 1812F580#0700434242444342
(1605726426.140445) vcan0 1811F581#01000E620E750E6C
(1605726426.140773) vcan0 1813F580#
(1605726426.141319) vcan0 183281F5#0200000000000000
(1605726426.141970) vcan0 1811F581#04000E5A0E540E50
(1605726426.142445) vcan0 1811F581#07000E710E830E58
(1605726426.143036) vcan0 1815F580#0001000000000000
(1605726426.143562) vcan0 1811F581#0A000E7A0E410E4B
(1605726426.144110) vcan0 1816F580#00129111000000
(1605726426.144666) vcan0 1811F581#0D000E380E320E64
(1605726426.145230) vcan0 1816F580#0013A111000000
(1605726426.145784) vcan0 1811F581#10000E9F0E3E0E4B
(1605726426.146273) vcan0 1816F580#00118111000000
(1605726426.146875) vcan0 1811F581#13000E6B0E790E6A
(1605726426.147443) vcan0 1811F581#16000E720E520E79
(1605726426.147732) vcan0 1833F580#
(1605726426.148054) vcan0 1814F580#
(1605726426.148561) vcan0 1811F581#19000E4D0E6C0E5F
(1605726426.149150) vcan0 184081F5#0100000000000000
(1605726426.149481) vcan0 1811F581#1C000E7B
(1605726426.150165) vcan0 183BF4E8#0401000000000000
(1605726426.150664) vcan0 1812F581#0100424343424343
(1605726426.151276) vcan0 183DF4E8#011291110000004B
(1605726426.151565) vcan0 1812F581#070042
(1605726426.152104) vcan0 1813F581#
(1605726426.153279) vcan0 183DF4E8#0113A11100000064
(1605726426.153897) vcan0 1815F581#0001000000000000
(1605726426.154378) vcan0 1816F581#00118111000000
(1605726426.155378) vcan0 1816F581#0012910D000000
(1605726426.156352) vcan0 1816F581#00138000000000
(1605726426.157105) vcan0 1814F581#
(1605726426.158161) vcan0 1833F581#
(1605726426.161468) vcan0 1833F580#
(1605726426.165355) vcan0 183DF4E8#011181110000004B
(1605726426.166637) vcan0 1841F580#00000000
(1605726426.167391) vcan0 183BF4E8#0801000000000000
(1605726426.169376) vcan0 183DF4E8#0211811100000000
(1605726426.171279) vcan0 183DF4E8#0212910D00000000
(1605726426.173296) vcan0 183DF4E8#0213800000000000
(1605726426.175275) vcan0 181082F5#FFFF0E663E9DFFFF
(1605726426.177310) vcan0 183282F5#0100000000000000
(1605726426.178162) vcan0 1833F581#
(1605726426.179044) vcan0 1811F582#01000E770E520E73
(1605726426.179698) vcan0 183282F5#0200000000000000
(1605726426.180089) vcan0 1811F582#04000E760E870E6E
(1605726426.181044) vcan0 1811F582#07000E5D0E640E54
(1605726426.181557) vcan0 184082F5#0100000000000000
(1605726426.182150) vcan0 1811F582#0A000E5E0E670E58
(1605726426.182978) vcan0 1811F582#0D000E500E7A0E56
(1605726426.184050) vcan0 1811F582#10000E600E2C0E2D
(1605726426.184394) vcan0 1841F581#00000000
(1605726426.185095) vcan0 1811F582#13000E6F0E520E74
(1605726426.186000) vcan0 1811F582#16000E6A0E570E4F
(1605726426.187041) vcan0 1811F582#19000E3B0E510E6B
(1605726426.187885) vcan0 1811F582#1C000E50
(1605726426.188961) vcan0 1812F582#0100434342434543
(1605726426.189833) vcan0 1812F582#070042
(1605726426.190722) vcan0 1813F582#
(1605726426.192042) vcan0 1815F582#0001000000000000
(1605726426.193020) vcan0 1816F582#00118111000000
(1605726426.193974) vcan0 1816F582#0012910D000000
(1605726426.195095) vcan0 1816F582#00138000000000
(1605726426.195731) vcan0 1814F582#
(1605726426.196753) vcan0 1833F582#
(1605726426.197332) vcan0 181083F5#FFFF0E663E9DFFFF
(1605726426.199284) vcan0 183283F5#0100000000000000
(1605726426.201313) vcan0 183283F5#0200000000000000
(1605726426.203313) vcan0 184083F5#0100000000000000
(1605726426.205268) vcan0 183BF4E8#0C01000000000000
(1605726426.207259) vcan0 183DF4E8#0311811100000000
(1605726426.209316) vcan0 183DF4E8#0312910D00000000
(1605726426.211344) vcan0 183DF4E8#0313800000000000
(1605726426.215733) vcan0 1833F582#
(1605726426.221946) vcan0 1841F582#00000000
(1605726426.227014) vcan0 1811F583#01000E730E780E62
(1605726426.227945) vcan0 1811F583#04000E600E620E76
(1605726426.228919) vcan0 1811F583#07000E650E520E85
(1605726426.229933) vcan0 1811F583#0A000E5B0E750E94
(1605726426.230896) vcan0 1811F583#0D000E7D0E470E94
(1605726426.231991) vcan0 1811F583#10000E760E630E63
(1605726426.232915) vcan0 1811F583#13000E890E800E4D
(1605726426.233907) vcan0 1811F583#16000E850E6B0E71
(1605726426.234960) vcan0 1811F583#19000E890E760E67
(1605726426.235953) vcan0 1811F583#1C000E6F0E8B0E57
(1605726426.236961) vcan0 1811F583#1F000E6C0E460E61
(1605726426.237929) vcan0 1811F583#22000E5A0E570E98
(1605726426.238909) vcan0 1811F583#25000E4E0E5B0E63
(1605726426.239941) vcan0 1811F583#28000E860E6C0E7C
(1605726426.240957) vcan0 1811F583#2B000E5A0E3F0E7B
(1605726426.241999) vcan0 1811F583#2E000E490E8E0E69
(1605726426.242934) vcan0 1812F583#0100424442414243
(1605726426.243914) vcan0 1812F583#0700424141424240
(1605726426.244679) vcan0 1813F583#
(1605726426.245946) vcan0 1815F583#0001000000000000
(1605726426.246926) vcan0 1816F583#00118111000000
(1605726426.247926) vcan0 1816F583#00129111000000
(1605726426.249461) vcan0 1816F583#0013A111000000
(1605726426.249777) vcan0 1814F583#
(1605726426.250295) vcan0 183BF4E8#1001000000000000
(1605726426.250679) vcan0 1833F583#
(1605726426.251403) vcan0 183DF4E8#0411811100000000
(1605726426.253275) vcan0 183DF4E8#0412911100000000
(1605726426.255313) vcan0 183DF4E8#0413A11100000000
(1605726426.265616) vcan0 1833F583#
(1605726426.270772) vcan0 1841F583#00000000
(1605726426.342186) vcan0 1830E8F4#0800000000000000
(1605726426.345273) vcan0 1838F4E8#0000000000FFFFFF
(1605726426.372786) vcan0 1830E8F4#0800000000000000
(1605726426.407297) vcan0 1838F4E8#0000000000FFFFFF
(1605726426.439929) vcan0 1830E8F4#0800000000000000
(1605726426.445291) vcan0 1838F4E8#0000000000FFFFFF
(1605726426.505241) vcan0 183ECCE8#4139E9391A444540
(1605726426.507435) vcan0 183FCCE8#0450002015E33E9D
(1605726426.509227) vcan0 1840CCE8#3EDAB4683E943EA8
(1605726426.618036) vcan0 181080F5#FFFF0E663E9DFFFF
(1605726426.619302) vcan0 183280F5#0100000000000000
(1605726426.621254) vcan0 183280F5#0200000000000000
(1605726426.623299) vcan0 184080F5#0100000000000000
(1605726426.637240) vcan0 181081F5#FFFF0E663E9DFFFF
(1605726426.639251) vcan0 183281F5#0100000000000000
(1605726426.639797) vcan0 1811F580#01000E390E7B0E8D
(1605726426.640770) vcan0 1811F580#04000E720E530E24
(1605726426.641464) vcan0 183281F5#0200000000000000
(1605726426.641986) vcan0 1811F580#07000E670E550EA7
(1605726426.642886) vcan0 1811F580#0A000E690E5A0E68
(1605726426.643346) vcan0 184081F5#0100000000000000
(1605726426.643938) vcan0 1811F580#0D000E700E860E73
(1605726426.644813) vcan0 1811F580#10000E6A0E750E69
(1605726426.645877) vcan0 1811F580#13000E540E9F0E58
(1605726426.646847) vcan0 1811F580#16000E750E700E86
(1605726426.647824) vcan0 1811F580#19000E840E770E5C
(1605726426.648796) vcan0 1811F580#1C000E800E850E52
(1605726426.649776) vcan0 1811F580#1F000E870E640E44
(1605726426.650785) vcan0 1811F580#22000E480E940E6F
(1605726426.651932) vcan0 1811F580#25000E590E4E0E93
(1605726426.652802) vcan0 1811F580#28000E6A0E5D0E59
(1605726426.653817) vcan0 1811F580#2B000E700E500E58
(1605726426.654784) vcan0 1811F580#2E000E600E400E66
(1605726426.655802) vcan0 1812F580#0100424242404243
(1605726426.656761) vcan0 1812F580#0700434242444342
(1605726426.657428) vcan0 1811F581#01000E630E750E6C
(1605726426.657745) vcan0 1813F580#
(1605726426.658445) vcan0 1811F581#04000E5A0E540E50
(1605726426.659120) vcan0 1815F580#0001000000000000
(1605726426.659608) vcan0 1811F581#07000E710E830E58
(1605726426.660115) vcan0 1816F580#00118111000000
(1605726426.660694) vcan0 1811F581#0A000E7A0E410E4B
(1605726426.661223) vcan0 1816F580#00129111000000
(1605726426.661804) vcan0 1811F581#0D000E380E320E64
(1605726426.662312) vcan0 1816F580#0013A111000000
(1605726426.662880) vcan0 1811F581#10000E9F0E3E0E4B
(1605726426.663281) vcan0 1814F580#
(1605726426.663631) vcan0 1811F581#13000E6B0E790E6A
(1605726426.663955) vcan0 1833F580#
(1605726426.664586) vcan0 1811F581#16000E720E520E79
(1605726426.665280) vcan0 183BF4E8#0401000000000000
(1605726426.665813) vcan0 1811F581#19000E4D0E6C0E5F
(1605726426.666430) vcan0 1811F581#1C000E7B
(1605726426.667284) vcan0 183DF4E8#0111811100000058
(1605726426.667785) vcan0 1812F581#0100424343424343
(1605726426.668423) vcan0 1812F581#070042
(1605726426.669258) vcan0 183DF4E8#011291110000004B
(1605726426.669577) vcan0 1813F581#
(1605726426.670490) vcan0 1815F581#0001000000000000
(1605726426.671276) vcan0 181082F5#FFFF0E663E9DFFFF
(1605726426.671802) vcan0 1816F581#00118111000000
(1605726426.672395) vcan0 1816F581#0012910D000000
(1605726426.673330) vcan0 183282F5#0100000000000000
(1605726426.673817) vcan0 1816F581#00138000000000
(1605726426.674148) vcan0 1814F581#
(1605726426.675356) vcan0 183282F5#0200000000000000
(1605726426.675689) vcan0 1833F581#
(1605726426.676160) vcan0 1833F581#
(1605726426.677249) vcan0 184082F5#0100000000000000
(1605726426.678494) vcan0 1833F580#
(1605726426.679314) vcan0 183DF4E8#0113A11100000064
(1605726426.684655) vcan0 1841F580#00000000
(1605726426.685301) vcan0 183BF4E8#0801000000000000
(1605726426.687238) vcan0 183DF4E8#0211811100000000
(1605726426.689227) vcan0 183DF4E8#0212910D00000000
(1605726426.691290) vcan0 183DF4E8#0213800000000000
(1605726426.692277) vcan0 1841F581#00000000
(1605726426.695074) vcan0 1811F582#01000E770E520E73
(1605726426.696044) vcan0 1811F582#04000E760E870E6E
(1605726426.697012) vcan0 1811F582#07000E5C0E640E54
(1605726426.697582) vcan0 181083F5#FFFF0E663E9DFFFF
(1605726426.698159) vcan0 1811F582#0A000E5E0E670E58
(1605726426.699113) vcan0 1811F582#0D000E500E7A0E56
(1605726426.699587) vcan0 183283F5#0100000000000000
(1605726426.700163) vcan0 1811F582#10000E5F0E2C0E2D
(1605726426.701165) vcan0 1811F582#13000E6F0E530E74
(1605726426.701620) vcan0 183283F5#0200000000000000
(1605726426.702128) vcan0 1811F582#16000E6A0E570E4F
(1605726426.703007) vcan0 1811F582#19000E3B0E510E6B
(1605726426.703646) vcan0 184083F5#0100000000000000
(1605726426.704031) vcan0 1811F582#1C000E50
(1605726426.704992) vcan0 1812F582#0100434342434543
(1605726426.705848) vcan0 1812F582#070042
(1605726426.706910) vcan0 1811F583#01000E730E780E62
(1605726426.707278) vcan0 1813F582#
(1605726426.707954) vcan0 1811F583#04000E600E610E76
(1605726426.708487) vcan0 1815F582#0001000000000000
(1605726426.709033) vcan0 1811F583#07000E650E520E85
(1605726426.709576) vcan0 1816F582#00118111000000
(1605726426.710116) vcan0 1811F583#0A000E5B0E750E94
(1605726426.710672) vcan0 1816F582#0012910D000000
(1605726426.711271) vcan0 1811F583#0D000E7D0E480E94
(1605726426.711800) vcan0 1816F582#00138000000000
(1605726426.712343) vcan0 1811F583#10000E770E630E63
(1605726426.712656) vcan0 1814F582#
(1605726426.713180) vcan0 1811F583#13000E890E800E4D
(1605726426.713560) vcan0 1833F582#
(1605726426.714017) vcan0 1811F583#16000E850E6B0E71
(1605726426.714733) vcan0 183BF4E8#0C01000000000000
(1605726426.715161) vcan0 1811F583#19000E890E760E67
(1605726426.715696) vcan0 183DF4E8#0311811100000085
(1605726426.716249) vcan0 1811F583#1C000E6F0E8B0E57
(1605726426.716993) vcan0 1811F583#1F000E6C0E460E61
(1605726426.717522) vcan0 183DF4E8#0312910D00000094
(1605726426.718711) vcan0 1811F583#22000E5A0E570E98
(1605726426.719045) vcan0 1811F583#25000E4E0E5B0E63
(1605726426.719480) vcan0 183DF4E8#0313800000000094
(1605726426.720092) vcan0 1811F583#28000E860E6C0E7C
(1605726426.720922) vcan0 1811F583#2B000E5A0E400E7B
(1605726426.722018) vcan0 1811F583#2E000E490E8E0E69
(1605726426.722948) vcan0 1812F583#0100424442414243
(1605726426.723902) vcan0 1812F583#0700424141424240
(1605726426.724691) vcan0 1813F583#
(1605726426.725943) vcan0 1815F583#0001000000000000
(1605726426.726884) vcan0 1816F583#00118111000000
(1605726426.727884) vcan0 1816F583#00129111000000
(1605726426.728882) vcan0 1816F583#0013A111000000
(1605726426.729678) vcan0 1814F583#
(1605726426.730642) vcan0 1833F583#
(1605726426.732794) vcan0 1833F582#
(1605726426.738910) vcan0 1841F582#00000000
(1605726426.744649) vcan0 1833F583#
(1605726426.750810) vcan0 1841F583#00000000
(1605726426.753261) vcan0 183BF4E8#1001000000000000
(1605726426.755263) vcan0 183DF4E8#0411811100000000
(1605726426.757349) vcan0 183DF4E8#0412911100000000
(1605726426.759245) vcan0 183DF4E8#0413A11100000000
(1605726426.848399) vcan0 1830E8F4#0800000000000000
(1605726426.853275) vcan0 1838F4E8#0000000000FFFFFF
(1605726426.946215) vcan0 1830E8F4#0800000000000000
(1605726426.977245) vcan0 1838F4E8#0000000000FFFFFF
(1605726427.017890) vcan0 1830CCE8#010139B3393339D2
(1605726427.019217) vcan0 1830CCE8#020439D339D139C3
(1605726427.021200) vcan0 1830CCE8#030739D739C2398F
(1605726427.023200) vcan0 1830CCE8#040A39A43976395E
(1605726427.025213) vcan0 1830CCE8#050D399E3998395E
(1605726427.027216) vcan0 1830CCE8#0610396D396D39A7
(1605726427.029209) vcan0 1830CCE8#0713399339B239B5
(1605726427.031203) vcan0 1830CCE8#08163971397F391B
(1605726427.033192) vcan0 1830CCE8#09193984394739AD
(1605726427.035188) vcan0 1830CCE8#0A1C398E39E939D0
(1605726427.037196) vcan0 1830CCE8#0B1F39CF39AE39D5
(1605726427.039192) vcan0 1830CCE8#0C22399439AA3992
(1605726427.041526) vcan0 1830CCE8#0D25398239BB0000
(1605726427.043216) vcan0 1831CCE8#0101424242404243
(1605726427.045194) vcan0 1831CCE8#0207434242444342
(1605726427.047210) vcan0 1831CCE8#030D424343424343
(1605726427.049188) vcan0 1831CCE8#0413424343424345
(1605726427.051253) vcan0 1831CCE8#0519434242444241
(1605726427.053215) vcan0 1831CCE8#061F424342414142
(1605726427.055233) vcan0 1831CCE8#07254240FFFFFFFF
(1605726427.057215) vcan0 1834CCE8#0104040700484144
(1605726427.059224) vcan0 1834CCE8#023E9D3E9D3EAC50
(1605726427.061201) vcan0 1834CCE8#0315E3166600F163
(1605726427.063224) vcan0 1834CCE8#043EF83E62470564
(1605726427.065237) vcan0 1834CCE8#0500C71AA7260200
(1605726427.067226) vcan0 1834CCE8#0600FF000000FF00
(1605726427.069202) vcan0 1838CCE8#0000FF20FFFFFFFF
(1605726427.071291) vcan0 183DCCE8#0100000000000000
(1605726427.073225) vcan0 183DCCE8#02000000FFFFFFFF
(1605726427.075221) vcan0 1840CCE8#3EDAB5F83E943EA8
(1605726427.117219) vcan0 181080F5#FFFF0E663E9DFFFF
(1605726427.119236) vcan0 183280F5#0100000000000000
(1605726427.121220) vcan0 183280F5#0200000000000000
(1605726427.122817) vcan0 1811F580#01000E390E7B0E8D
(1605726427.123366) vcan0 184080F5#0100000000000000
(1605726427.123978) vcan0 1811F580#04000E720E530E24
(1605726427.124872) vcan0 1811F580#07000E680E550EA7
(1605726427.125792) vcan0 1811F580#0A000E690E5A0E68
(1605726427.126809) vcan0 1811F580#0D000E700E860E74
(1605726427.127873) vcan0 1811F580#10000E6A0E750E69
(1605726427.128823) vcan0 1811F580#13000E540E9F0E58
(1605726427.129878) vcan0 1811F580#16000E750E700E86
(1605726427.130823) vcan0 1811F580#19000E840E770E5C
(1605726427.131905) vcan0 1811F580#1C000E800E850E52
(1605726427.132841) vcan0 1811F580#1F000E870E640E44
(1605726427.133825) vcan0 1811F580#22000E480E940E6F
(1605726427.134809) vcan0 1811F580#25000E590E4E0E93
(1605726427.135830) vcan0 1811F580#28000E6A0E5C0E59
(1605726427.136880) vcan0 1811F580#2B000E700E500E58
(1605726427.137371) vcan0 181081F5#FFFF0E663E9DFFFF
(1605726427.137997) vcan0 1811F580#2E000E600E400E66
(1605726427.138886) vcan0 1812F580#0100424242404243
(1605726427.139390) vcan0 183281F5#0100000000000000
(1605726427.140041) vcan0 1812F580#0700434242444342
(1605726427.140504) vcan0 1813F580#
(1605726427.141262) vcan0 183281F5#0200000000000000
(1605726427.141936) vcan0 1815F580#0001000000000000
(1605726427.142413) vcan0 1811F581#01000E620E750E6D
(1605726427.143028) vcan0 1816F580#00118111000000
(1605726427.143503) vcan0 1811F581#04000E5B0E540E50
(1605726427.144109) vcan0 1816F580#00129111000000
(1605726427.144680) vcan0 1811F581#07000E710E830E58
(1605726427.145270) vcan0 1816F580#0013A111000000
(1605726427.145734) vcan0 1811F581#0A000E7A0E420E4C
(1605726427.146081) vcan0 1814F580#
(1605726427.146561) vcan0 1811F581#0D000E380E320E65
(1605726427.146897) vcan0 1833F580#
(1605726427.147495) vcan0 184081F5#0100000000000000
(1605726427.147974) vcan0 1811F581#10000E9F0E3D0E4B
(1605726427.148589) vcan0 1811F581#13000E6B0E790E6A
(1605726427.149478) vcan0 1811F581#16000E720E520E79
(1605726427.151750) vcan0 1811F581#19000E4D0E6C0E5F
(1605726427.152010) vcan0 1811F581#1C000E7B
(1605726427.152385) vcan0 1812F581#0100424343424343
(1605726427.153340) vcan0 1812F581#070042
(1605726427.154218) vcan0 1813F581#
(1605726427.155532) vcan0 1815F581#0001000000000000
(1605726427.156425) vcan0 1816F581#00118111000000
(1605726427.157411) vcan0 1816F581#0012910D000000
(1605726427.158418) vcan0 1816F581#00138000000000
(1605726427.159199) vcan0 1814F581#
(1605726427.160153) vcan0 1833F581#
(1605726427.160477) vcan0 1833F580#
(1605726427.166702) vcan0 1841F580#00000000
(1605726427.167219) vcan0 181082F5#FFFF0E663E9DFFFF
(1605726427.169240) vcan0 183282F5#0100000000000000
(1605726427.171241) vcan0 183282F5#0200000000000000
(1605726427.172250) vcan0 1833F581#
(1605726427.173221) vcan0 184082F5#0100000000000000
(1605726427.175040) vcan0 1811F582#01000E770E520E73
(1605726427.175714) vcan0 183BF4E8#0401000000000000
(1605726427.176161) vcan0 1811F582#04000E770E870E6E
(1605726427.177103) vcan0 1811F582#07000E5D0E640E54
(1605726427.177604) vcan0 183DF4E8#011181110000006D
(1605726427.178221) vcan0 1811F582#0A000E5E0E670E58
(1605726427.178649) vcan0 1841F581#00000000
(1605726427.179188) vcan0 1811F582#0D000E500E7A0E56
(1605726427.179783) vcan0 183DF4E8#0112911100000050
(1605726427.180290) vcan0 1811F582#10000E600E2C0E2D
(1605726427.181069) vcan0 1811F582#13000E6F0E530E74
(1605726427.181608) vcan0 183DF4E8#0113A11100000058
(1605726427.182220) vcan0 1811F582#16000E6A0E570E4F
(1605726427.183055) vcan0 1811F582#19000E3B0E510E6C
(1605726427.183627) vcan0 183BF4E8#0801000000000000
(1605726427.184006) vcan0 1811F582#1C000E50
(1605726427.185134) vcan0 1812F582#0100434342434543
(1605726427.185660) vcan0 183DF4E8#0211811100000000
(1605726427.185955) vcan0 1812F582#070042
(1605726427.186773) vcan0 1813F582#
(1605726427.187410) vcan0 183DF4E8#0212910D00000000
(1605726427.188112) vcan0 1815F582#0001000000000000
(1605726427.189019) vcan0 1816F582#00118111000000
(1605726427.189634) vcan0 183DF4E8#0213800000000000
(1605726427.190154) vcan0 1816F582#0012910D000000
(1605726427.191094) vcan0 1816F582#00138000000000
(1605726427.191943) vcan0 1814F582#
(1605726427.192785) vcan0 1833F582#
(1605726427.197229) vcan0 181083F5#FFFF0E663E9DFFFF
(1605726427.199261) vcan0 183283F5#0100000000000000
(1605726427.201224) vcan0 183283F5#0200000000000000
(1605726427.203396) vcan0 184083F5#0100000000000000
(1605726427.212773) vcan0 1833F582#
(1605726427.217932) vcan0 1841F582#00000000
(1605726427.226949) vcan0 1811F583#01000E730E780E62
(1605726427.227932) vcan0 1811F583#04000E600E610E76
(1605726427.228936) vcan0 1811F583#07000E650E520E85
(1605726427.229929) vcan0 1811F583#0A000E5B0E750E94
(1605726427.230934) vcan0 1811F583#0D000E7D0E480E94
(1605726427.231987) vcan0 1811F583#10000E770E630E63
(1605726427.232953) vcan0 1811F583#13000E890E800E4D
(1605726427.233970) vcan0 1811F583#16000E850E6B0E71
(1605726427.234944) vcan0 1811F583#19000E890E760E67
(1605726427.235919) vcan0 1811F583#1C000E6F0E8B0E57
(1605726427.236943) vcan0 1811F583#1F000E6C0E460E60
(1605726427.237920) vcan0 1811F583#22000E5A0E570E98
(1605726427.238986) vcan0 1811F583#25000E4E0E5B0E63
(1605726427.239492) vcan0 183BF4E8#0C01000000000000
(1605726427.240103) vcan0 1811F583#28000E860E6C0E7C
(1605726427.241041) vcan0 1811F583#2B000E5A0E400E7B
(1605726427.241529) vcan0 183DF4E8#0311811100000000
(1605726427.242089) vcan0 1811F583#2E000E490E8E0E69
(1605726427.242951) vcan0 1812F583#0100424442414243
(1605726427.243489) vcan0 183DF4E8#0312910D00000000
(1605726427.244047) vcan0 1812F583#0700424141424240
(1605726427.244663) vcan0 1813F583#
(1605726427.245250) vcan0 183DF4E8#0313800000000000
(1605726427.245949) vcan0 1815F583#0001000000000000
(1605726427.246960) vcan0 1816F583#00118111000000
(1605726427.247908) vcan0 1816F583#00129111000000
(1605726427.248903) vcan0 1816F583#0013A111000000
(1605726427.249698) vcan0 1814F583#
(1605726427.250710) vcan0 1833F583#
(1605726427.259244) vcan0 183BF4E8#1001000000000000
(1605726427.261197) vcan0 183DF4E8#0411811100000000
(1605726427.263215) vcan0 183DF4E8#0412911100000000
(1605726427.264759) vcan0 1833F583#
(1605726427.265215) vcan0 183DF4E8#0413A11100000000
(1605726427.270855) vcan0 1841F583#00000000
(1605726427.354871) vcan0 1830E8F4#0800000000000000
(1605726427.377233) vcan0 1838F4E8#0000000000FFFFFF
(1605726427.452068) vcan0 1830E8F4#0800000000000000
(1605726427.481203) vcan0 1838F4E8#0000000000FFFFFF
(1605726427.617952) vcan0 181080F5#FFFF0E663E9DFFFF
(1605726427.619210) vcan0 183280F5#0100000000000000
(1605726427.621177) vcan0 183280F5#0200000000000000
(1605726427.623191) vcan0 184080F5#0100000000000000
(1605726427.627171) vcan0 183ECCE8#4139E9391B444540
(1605726427.629172) vcan0 183FCCE8#0450002015E33E9D
(1605726427.631153) vcan0 1840CCE8#3EDAB7D83E943EA8
(1605726427.637173) vcan0 181081F5#FFFF0E663E9DFFFF
(1605726427.639187) vcan0 183281F5#0100000000000000
(1605726427.640003) vcan0 1811F580#01000E380E7B0E8D
(1605726427.640864) vcan0 1811F580#04000E720E530E24
(1605726427.641403) vcan0 183281F5#0200000000000000
(1605726427.642013) vcan0 1811F580#07000E670E550EA7
(1605726427.642948) vcan0 1811F580#0A000E690E5A0E68
(1605726427.643397) vcan0 184081F5#0100000000000000
(1605726427.644104) vcan0 1811F580#0D000E700E860E74
(1605726427.644846) vcan0 1811F580#10000E6A0E750E69
(1605726427.645898) vcan0 1811F580#13000E540E9F0E58
(1605726427.646855) vcan0 1811F580#16000E750E700E86
(1605726427.647828) vcan0 1811F580#19000E840E770E5C
(1605726427.648910) vcan0 1811F580#1C000E800E850E52
(1605726427.649434) vcan0 1811F581#01000E620E750E6D
(1605726427.650001) vcan0 1811F580#1F000E870E640E44
(1605726427.650612) vcan0 1811F581#04000E5B0E540E50
(1605726427.651207) vcan0 1811F580#22000E480E940E6E
(1605726427.651862) vcan0 1811F581#07000E710E830E58
(1605726427.652198) vcan0 1811F580#25000E590E4E0E93
(1605726427.652858) vcan0 1811F581#0A000E7A0E420E4C
(1605726427.653428) vcan0 1811F580#28000E6A0E5D0E59
(1605726427.653941) vcan0 1811F580#2B000E700E500E58
(1605726427.654499) vcan0 1811F581#0D000E380E320E65
(1605726427.655040) vcan0 1811F580#2E000E600E400E65
(1605726427.655652) vcan0 1811F581#13000E6B0E790E6A
(1605726427.656155) vcan0 1811F581#10000E9F0E3D0E4B
(1605726427.656762) vcan0 1811F581#16000E720E520E79
(1605726427.657266) vcan0 1812F580#0100424242404243
(1605726427.657860) vcan0 1811F581#19000E4D0E6C0E5F
(1605726427.658401) vcan0 1812F580#0700434242444342
(1605726427.658903) vcan0 1811F581#1C000E7B
(1605726427.659431) vcan0 1815F580#0001000000000000
(1605726427.659975) vcan0 1812F581#0100424343424343
(1605726427.660314) vcan0 1812F581#070042
(1605726427.660908) vcan0 1816F580#00129111000000
(1605726427.661443) vcan0 1816F580#00118111000000
(1605726427.661866) vcan0 1813F581#
(1605726427.662291) vcan0 1816F580#0013A111000000
(1605726427.662643) vcan0 1813F580#
(1605726427.662993) vcan0 1814F580#
(1605726427.663380) vcan0 1815F581#0001000000000000
(1605726427.663888) vcan0 1816F581#00118111000000
(1605726427.664426) vcan0 1816F581#0012910D000000
(1605726427.664773) vcan0 1833F580#
(1605726427.665479) vcan0 1816F581#00138000000000
(1605726427.666223) vcan0 1814F581#
(1605726427.667182) vcan0 181082F5#FFFF0E663E9DFFFF
(1605726427.667494) vcan0 1833F581#
(1605726427.668203) vcan0 1833F581#
(1605726427.669232) vcan0 183282F5#0100000000000000
(1605726427.669572) vcan0 1841F581#00000000
(1605726427.671267) vcan0 183282F5#0200000000000000
(1605726427.673254) vcan0 184082F5#0100000000000000
(1605726427.675218) vcan0 183BF4E8#0401000000000000
(1605726427.677175) vcan0 183DF4E8#0112911100000043
(1605726427.678564) vcan0 1833F580#
(1605726427.679188) vcan0 183DF4E8#0111811100000043
(1605726427.681228) vcan0 183DF4E8#0113A11100000043
(1605726427.683212) vcan0 183BF4E8#0801000000000000
(1605726427.683692) vcan0 1841F580#00000000
(1605726427.685234) vcan0 183DF4E8#0211811100000000
(1605726427.687171) vcan0 183DF4E8#0212910D00000000
(1605726427.689192) vcan0 183DF4E8#0213800000000000
(1605726427.695079) vcan0 1811F582#01000E770E520E73
(1605726427.696063) vcan0 1811F582#04000E770E870E6E
(1605726427.697047) vcan0 1811F582#07000E5D0E650E54
(1605726427.697608) vcan0 181083F5#FFFF0E663E9DFFFF
(1605726427.698193) vcan0 1811F582#0A000E5E0E670E59
(1605726427.699167) vcan0 1811F582#0D000E500E790E56
(1605726427.699631) vcan0 183283F5#0100000000000000
(1605726427.700263) vcan0 1811F582#10000E600E2C0E2D
(1605726427.701101) vcan0 1811F582#13000E6F0E530E74
(1605726427.701608) vcan0 183283F5#0200000000000000
(1605726427.702241) vcan0 1811F582#16000E6A0E580E4F
(1605726427.703070) vcan0 1811F582#19000E3B0E510E6B
(1605726427.703651) vcan0 184083F5#0100000000000000
(1605726427.704104) vcan0 1811F582#1C000E51
(1605726427.705102) vcan0 1812F582#0100434342434543
(1605726427.705962) vcan0 1811F583#01000E730E780E62
(1605726427.706367) vcan0 1812F582#070042
(1605726427.706956) vcan0 1811F583#04000E600E620E76
(1605726427.707321) vcan0 1813F582#
(1605726427.708029) vcan0 1811F583#07000E650E520E85
(1605726427.708516) vcan0 1815F582#0001000000000000
(1605726427.709165) vcan0 1811F583#0A000E5B0E750E94
(1605726427.709606) vcan0 1816F582#00118111000000
(1605726427.710173) vcan0 1811F583#0D000E7D0E470E94
(1605726427.710771) vcan0 1816F582#0012910D000000
(1605726427.711243) vcan0 1811F583#10000E770E630E63
(1605726427.711789) vcan0 1816F582#00138000000000
(1605726427.712385) vcan0 1811F583#13000E890E800E4D
(1605726427.712703) vcan0 1814F582#
(1605726427.713197) vcan0 1811F583#16000E850E6B0E71
(1605726427.713496) vcan0 1833F582#
(1605726427.714017) vcan0 1811F583#19000E890E760E67
(1605726427.714983) vcan0 1811F583#1C000E6F0E8B0E57
(1605726427.715956) vcan0 1811F583#1F000E6C0E460E60
(1605726427.716993) vcan0 1811F583#22000E5A0E570E98
(1605726427.717953) vcan0 1811F583#25000E4E0E5B0E64
(1605726427.719042) vcan0 1811F583#28000E860E6C0E7C
(1605726427.719964) vcan0 1811F583#2B000E5A0E400E7B
(1605726427.721096) vcan0 1811F583#2E000E490E8E0E69
(1605726427.722040) vcan0 1812F583#0100424442414243
(1605726427.722999) vcan0 1812F583#0700424141424240
(1605726427.723743) vcan0 1813F583#
(1605726427.724985) vcan0 1815F583#0001000000000000
(1605726427.725303) vcan0 1833F582#
(1605726427.725922) vcan0 1816F583#00118111000000
(1605726427.727007) vcan0 1816F583#00129111000000
(1605726427.727933) vcan0 1816F583#0013A111000000
(1605726427.728691) vcan0 1814F583#
(1605726427.729735) vcan0 1833F583#
(1605726427.730994) vcan0 1841F582#00000000
(1605726427.731664) vcan0 183BF4E8#0C01000000000000
(1605726427.733151) vcan0 183DF4E8#0311811100000094
(1605726427.735159) vcan0 183DF4E8#0312910D00000094
(1605726427.737171) vcan0 183DF4E8#0313800000000063
(1605726427.739208) vcan0 183BF4E8#1001000000000000
(1605726427.741166) vcan0 183DF4E8#0411811100000000
(1605726427.743161) vcan0 183DF4E8#0412911100000000
(1605726427.744700) vcan0 1833F583#
(1605726427.745293) vcan0 183DF4E8#0413A11100000000
(1605726427.750850) vcan0 1841F583#00000000
(1605726427.862351) vcan0 1830E8F4#0800000000000000
(1605726427.871184) vcan0 1838F4E8#0000000000FFFFFF
(1605726427.957913) vcan0 1830E8F4#0800000000000000
(1605726427.961150) vcan0 1838F4E8#0000000000FFFFFF
(1605726428.117135) vcan0 181080F5#FFFF0E663E9DFFFF
(1605726428.119155) vcan0 183280F5#0100000000000000
(1605726428.121347) vcan0 183280F5#0200000000000000
(1605726428.121878) vcan0 1811F580#01000E380E7B0E8D
(1605726428.122872) vcan0 1811F580#04000E720E530E24
(1605726428.123408) vcan0 184080F5#0100000000000000
(1605726428.124070) vcan0 1811F580#07000E670E550EA7
(1605726428.124939) vcan0 1811F580#0A000E690E5B0E68
(1605726428.125834) vcan0 1811F580#0D000E6F0E860E74
(1605726428.126834) vcan0 1811F580#10000E6A0E750E69
(1605726428.127943) vcan0 1811F580#13000E540E9F0E58
(1605726428.128825) vcan0 1811F580#16000E750E700E86
(1605726428.129855) vcan0 1811F580#19000E840E770E5C
(1605726428.130879) vcan0 1811F580#1C000E800E850E52
(1605726428.131922) vcan0 1811F580#1F000E870E640E44
(1605726428.132856) vcan0 1811F580#22000E480E940E6F
(1605726428.133878) vcan0 1811F580#25000E590E4E0E93
(1605726428.134872) vcan0 1811F580#28000E6B0E5D0E59
(1605726428.135883) vcan0 1811F580#2B000E700E500E58
(1605726428.136902) vcan0 1811F580#2E000E600E400E66
(1605726428.137403) vcan0 181081F5#FFFF0E663E9DFFFF
(1605726428.137977) vcan0 1812F580#0100424242404243
(1605726428.138822) vcan0 1812F580#0700434242444342
(1605726428.139475) vcan0 183281F5#0100000000000000
(1605726428.139971) vcan0 1811F581#01000E620E750E6D
(1605726428.140538) vcan0 1811F581#04000E5B0E540E50
(1605726428.140831) vcan0 1813F580#
(1605726428.141406) vcan0 1815F580#0001000000000000
(1605726428.142108) vcan0 1811F581#07000E710E830E58
(1605726428.142520) vcan0 1811F581#0A000E7A0E420E4C
(1605726428.143104) vcan0 1816F580#00118111000000
(1605726428.143632) vcan0 1811F581#0D000E380E320E65
(1605726428.144122) vcan0 1816F580#0013A111000000
(1605726428.144700) vcan0 1811F581#10000E9F0E3E0E4B
(1605726428.145068) vcan0 1814F580#
(1605726428.145699) vcan0 1811F581#13000E6B0E790E6A
(1605726428.146182) vcan0 183281F5#0200000000000000
(1605726428.146801) vcan0 1811F581#16000E720E520E79
(1605726428.147269) vcan0 1830CCE8#010139B2393339D2
(1605726428.147890) vcan0 1811F581#19000E4D0E6C0E5F
(1605726428.148221) vcan0 1833F580#
(1605726428.148615) vcan0 1811F581#1C000E7B
(1605726428.149049) vcan0 1816F580#00129111000000
(1605726428.149699) vcan0 1812F581#0100424343424343
(1605726428.150168) vcan0 1830CCE8#020439D439D139C3
(1605726428.150471) vcan0 1812F581#070042
(1605726428.151207) vcan0 184081F5#0100000000000000
(1605726428.151453) vcan0 1813F581#
(1605726428.152067) vcan0 1830CCE8#030739D739C2398E
(1605726428.152556) vcan0 1815F581#0001000000000000
(1605726428.153202) vcan0 1830CCE8#040A39A43976395D
(1605726428.153673) vcan0 1816F581#00118111000000
(1605726428.154547) vcan0 1816F581#0012910D000000
(1605726428.155343) vcan0 1830CCE8#050D399F39983960
(1605726428.155601) vcan0 1816F581#00138000000000
(1605726428.156259) vcan0 1814F581#
(1605726428.157318) vcan0 1830CCE8#0610396E396C39A7
(1605726428.157629) vcan0 1833F581#
(1605726428.159117) vcan0 1830CCE8#0713399339B339B7
(1605726428.160561) vcan0 1833F580#
(1605726428.161186) vcan0 1830CCE8#08163972397F391B
(1605726428.163167) vcan0 1830CCE8#09193985394839AD
(1605726428.165107) vcan0 1830CCE8#0A1C398F39E939CF
(1605726428.165754) vcan0 1841F580#00000000
(1605726428.167146) vcan0 1830CCE8#0B1F39CF39AE39D5
(1605726428.169131) vcan0 1830CCE8#0C22399439A93993
(1605726428.171196) vcan0 1830CCE8#0D25398239BB0000
(1605726428.173167) vcan0 1831CCE8#0101424242404243
(1605726428.175111) vcan0 1831CCE8#0207434242444342
(1605726428.177135) vcan0 1831CCE8#030D424343424343
(1605726428.177471) vcan0 1833F581#
(1605726428.179170) vcan0 1831CCE8#0413424343424345
(1605726428.181120) vcan0 1831CCE8#0519434242444241
(1605726428.184248) vcan0 1831CCE8#061F424342414142
(1605726428.184410) vcan0 1841F581#00000000
(1605726428.185022) vcan0 1831CCE8#07254240FFFFFFFF
(1605726428.187029) vcan0 1834CCE8#0104040700484144
(1605726428.189027) vcan0 1834CCE8#023E9D3E9D3EAC50
(1605726428.191005) vcan0 1834CCE8#0315E3166600F163
(1605726428.193009) vcan0 1834CCE8#043EF83E62470564
(1605726428.195016) vcan0 1834CCE8#0500C71AA7260200
(1605726428.197139) vcan0 1834CCE8#0600FF000000FF00
(1605726428.199133) vcan0 1838CCE8#0000FF20FFFFFFFF
(1605726428.201136) vcan0 183DCCE8#0100000000000000
(1605726428.203189) vcan0 183DCCE8#02000000FFFFFFFF
(1605726428.205134) vcan0 1840CCE8#3EDAB9683E943EA8
(1605726428.207140) vcan0 183BF4E8#0401000000000000
(1605726428.209126) vcan0 183DF4E8#011181110000004C
(1605726428.211190) vcan0 183DF4E8#0113A11100000065
(1605726428.213131) vcan0 183DF4E8#011291110000005F
(1605726428.215141) vcan0 183BF4E8#0801000000000000
(1605726428.217829) vcan0 183DF4E8#0211811100000000
(1605726428.219149) vcan0 183DF4E8#0212910D00000000
(1605726428.221176) vcan0 183DF4E8#0213800000000000
(1605726428.223178) vcan0 181082F5#FFFF0E663E9DFFFF
(1605726428.225150) vcan0 183282F5#0100000000000000
(1605726428.226100) vcan0 1811F582#01000E770E520E73
(1605726428.227201) vcan0 1811F582#04000E770E870E6E
(1605726428.227654) vcan0 183282F5#0200000000000000
(1605726428.228235) vcan0 1811F582#07000E5D0E650E54
(1605726428.229211) vcan0 1811F582#0A000E5E0E670E59
(1605726428.229678) vcan0 184082F5#0100000000000000
(1605726428.230220) vcan0 1811F582#0D000E500E790E56
(1605726428.231172) vcan0 1811F582#10000E600E2C0E2C
(1605726428.231783) vcan0 181083F5#FFFF0E663E9DFFFF
(1605726428.232230) vcan0 1811F582#13000E700E530E74
(1605726428.233119) vcan0 1811F582#16000E6A0E580E4F
(1605726428.233665) vcan0 183283F5#0100000000000000
(1605726428.234236) vcan0 1811F582#19000E3B0E510E6B
(1605726428.235031) vcan0 1811F582#1C000E51
(1605726428.235526) vcan0 183283F5#0200000000000000
(1605726428.236112) vcan0 1812F582#0100434342434543
(1605726428.236937) vcan0 1812F582#070042
(1605726428.237519) vcan0 184083F5#0100000000000000
(1605726428.238070) vcan0 1813F582#
(1605726428.239188) vcan0 1815F582#0001000000000000
(1605726428.240088) vcan0 1816F582#00118111000000
(1605726428.241056) vcan0 1816F582#0012910D000000
(1605726428.242128) vcan0 1816F582#00138000000000
(1605726428.242929) vcan0 1814F582#
(1605726428.251171) vcan0 183BF4E8#0C01000000000000
(1605726428.253142) vcan0 183DF4E8#0311811100000000
(1605726428.255151) vcan0 183DF4E8#0312910D00000000
(1605726428.257142) vcan0 183DF4E8#0313800000000000
(1605726428.257824) vcan0 1833F582#
(1605726428.262818) vcan0 1833F582#
(1605726428.263996) vcan0 1811F583#01000E730E780E62
(1605726428.264983) vcan0 1811F583#04000E600E610E76
(1605726428.266022) vcan0 1811F583#07000E650E520E85
(1605726428.267551) vcan0 1811F583#0A000E5B0E750E94
(1605726428.268120) vcan0 1811F583#0D000E7D0E470E94
(1605726428.269001) vcan0 1811F583#10000E770E630E63
(1605726428.270080) vcan0 1811F583#13000E890E800E4D
(1605726428.271094) vcan0 1811F583#16000E850E6B0E70
(1605726428.272025) vcan0 1811F583#19000E890E760E67
(1605726428.273014) vcan0 1811F583#1C000E6F0E8B0E57
(1605726428.274020) vcan0 1811F583#1F000E6C0E460E60
(1605726428.275041) vcan0 1811F583#22000E5A0E570E98
(1605726428.276074) vcan0 1811F583#25000E4E0E5B0E63
(1605726428.277075) vcan0 1811F583#28000E860E6C0E7C
(1605726428.278066) vcan0 1811F583#2B000E5A0E400E7B
(1605726428.279039) vcan0 1811F583#2E000E490E8E0E69
(1605726428.280014) vcan0 1812F583#0100424442414243
(1605726428.281023) vcan0 1812F583#0700424141424140
(1605726428.281776) vcan0 1813F583#
(1605726428.283079) vcan0 1815F583#0001000000000000
(1605726428.283974) vcan0 1816F583#00118111000000
(1605726428.284963) vcan0 1816F583#00129111000000
(1605726428.285990) vcan0 1816F583#0013A111000000
(1605726428.286694) vcan0 1814F583#
(1605726428.287717) vcan0 1833F583#
(1605726428.288715) vcan0 1833F583#
(1605726428.294995) vcan0 1841F582#00000000
(1605726428.297150) vcan0 183BF4E8#1001000000000000
(1605726428.299161) vcan0 183DF4E8#0411811100000000
(1605726428.301130) vcan0 183DF4E8#0412911100000000
(1605726428.303133) vcan0 183DF4E8#0413A11100000000
(1605726428.307968) vcan0 1841F583#00000000
(1605726428.367470) vcan0 1830E8F4#0800000000000000
(1605726428.373149) vcan0 1838F4E8#0000000000FFFFFF
(1605726428.464025) vcan0 1830E8F4#0800000000000000
(1605726428.469163) vcan0 1838F4E8#0000000000FFFFFF
(1605726428.617895) vcan0 181080F5#FFFF0E663E9DFFFF
(1605726428.619160) vcan0 183280F5#0100000000000000
(1605726428.621120) vcan0 183280F5#0200000000000000
(1605726428.623116) vcan0 184080F5#0100000000000000
(1605726428.637108) vcan0 181081F5#FFFF0E663E9DFFFF
(1605726428.638865) vcan0 1811F580#01000E380E7B0E8D
(1605726428.639477) vcan0 183281F5#0100000000000000
(1605726428.639996) vcan0 1811F580#04000E720E530E24
(1605726428.640944) vcan0 1811F580#07000E680E550EA7
(1605726428.641432) vcan0 183281F5#0200000000000000
(1605726428.642007) vcan0 1811F580#0A000E690E5B0E68
(1605726428.642912) vcan0 1811F580#0D000E6F0E860E74
(1605726428.643455) vcan0 184081F5#0100000000000000
(1605726428.644001) vcan0 1811F580#10000E6A0E750E69
(1605726428.644863) vcan0 1811F580#13000E540E9E0E58
(1605726428.645849) vcan0 1811F580#16000E750E700E86
(1605726428.646900) vcan0 1811F580#19000E840E770E5C
(1605726428.647926) vcan0 1811F580#1C000E800E850E52
(1605726428.648892) vcan0 1811F580#1F000E870E640E44
(1605726428.649910) vcan0 1811F580#22000E480E940E6F
(1605726428.650931) vcan0 1811F580#25000E590E4E0E93
(1605726428.651978) vcan0 1811F580#28000E6B0E5D0E59
(1605726428.652864) vcan0 1811F580#2B000E710E500E58
(1605726428.653876) vcan0 1811F580#2E000E600E400E66
(1605726428.654902) vcan0 1812F580#0100424242404243
(1605726428.655873) vcan0 1812F580#0700434242444342
(1605726428.656627) vcan0 1813F580#
(1605726428.657892) vcan0 1815F580#0001000000000000
(1605726428.658854) vcan0 1816F580#00118111000000
(1605726428.659834) vcan0 1816F580#00129111000000
(1605726428.660889) vcan0 1816F580#0013A111000000
(1605726428.661631) vcan0 1814F580#
(1605726428.662643) vcan0 1833F580#
(1605726428.667228) vcan0 183BF4E8#0401000000000000
(1605726428.669102) vcan0 183DF4E8#0111811100000000
(1605726428.671104) vcan0 183DF4E8#0112911100000000
(1605726428.673120) vcan0 183DF4E8#0113A11100000000
(1605726428.675150) vcan0 181082F5#FFFF0E663E9DFFFF
(1605726428.677128) vcan0 183282F5#0100000000000000
(1605726428.677695) vcan0 1833F580#
(1605726428.679126) vcan0 183282F5#0200000000000000
(1605726428.681111) vcan0 184082F5#0100000000000000
(1605726428.683741) vcan0 1841F580#00000000
(1605726428.692516) vcan0 1811F581#01000E620E750E6D
(1605726428.693490) vcan0 1811F581#04000E5B0E540E50
(1605726428.694502) vcan0 1811F581#07000E710E830E58
(1605726428.695505) vcan0 1811F581#0A000E7A0E420E4C
(1605726428.696503) vcan0 1811F581#0D000E380E320E65
(1605726428.697124) vcan0 181083F5#FFFF0E663E9DFFFF
(1605726428.697664) vcan0 1811F581#10000E9F0E3D0E4B
(1605726428.698547) vcan0 1811F581#13000E6B0E790E6A
(1605726428.699204) vcan0 183283F5#0100000000000000
(1605726428.699827) vcan0 1811F581#16000E720E520E79
(1605726428.700494) vcan0 1811F581#19000E4D0E6C0E5F
(1605726428.701095) vcan0 183283F5#0200000000000000
(1605726428.701548) vcan0 1811F581#1C000E7B
(1605726428.702520) vcan0 1812F581#0100424343424343
(1605726428.703143) vcan0 184083F5#0100000000000000
(1605726428.703473) vcan0 1812F581#070042
(1605726428.704262) vcan0 1813F581#
(1605726428.705536) vcan0 1815F581#0001000000000000
(1605726428.706109) vcan0 1811F583#01000E730E780E62
(1605726428.706605) vcan0 1816F581#00118111000000
(1605726428.707189) vcan0 1811F583#04000E600E610E76
(1605726428.707715) vcan0 1816F581#0012910D000000
(1605726428.708312) vcan0 1811F583#07000E650E520E85
(1605726428.708768) vcan0 1816F581#00138000000000
(1605726428.709314) vcan0 1811F583#0A000E5B0E750E94
(1605726428.709630) vcan0 1814F581#
(1605726428.710174) vcan0 1811F583#0D000E7D0E470E94
(1605726428.711020) vcan0 1811F583#10000E760E630E63
(1605726428.712007) vcan0 1811F583#13000E890E800E4D
(1605726428.712992) vcan0 1811F583#16000E850E6B0E71
(1605726428.714024) vcan0 1811F583#19000E890E760E67
(1605726428.715039) vcan0 1811F583#1C000E6F0E8B0E57
(1605726428.715611) vcan0 183BF4E8#0801000000000000
(1605726428.716112) vcan0 1811F583#1F000E6C0E460E61
(1605726428.717046) vcan0 1811F583#22000E5A0E570E98
(1605726428.717578) vcan0 183DF4E8#0211811100000062
(1605726428.718117) vcan0 1811F583#25000E4E0E5B0E63
(1605726428.719079) vcan0 1811F583#28000E860E6C0E7C
(1605726428.719577) vcan0 183DF4E8#0212910D00000076
(1605726428.720115) vcan0 1811F583#2B000E5A0E400E7B
(1605726428.721026) vcan0 1811F583#2E000E490E8E0E69
(1605726428.721576) vcan0 183DF4E8#0213800000000085
(1605726428.722263) vcan0 1812F583#0100424442414243
(1605726428.723055) vcan0 1812F583#0700424141424140
(1605726428.723726) vcan0 1813F583#
(1605726428.725049) vcan0 1815F583#0001000000000000
(1605726428.726015) vcan0 1816F583#00118111000000
(1605726428.727042) vcan0 1816F583#00129111000000
(1605726428.728006) vcan0 1816F583#0013A111000000
(1605726428.728577) vcan0 1811F582#01000E770E520E73
(1605726428.728906) vcan0 1814F583#
(1605726428.729365) vcan0 1811F582#04000E760E870E6E
(1605726428.729983) vcan0 183BF4E8#1001000000000000
