(1605726422.019523) can0 183ECCE8#4139E9391A444540
(1605726422.021542) can0 183FCCE8#0450002015E33E9D
(1605726422.023521) can0 1840CCE8#3EDAA6A83E943EA8
(1605726422.117529) can0 181080F5#FFFF0E663E9DFFFF
(1605726422.119551) can0 183280F5#0100000000000000
(1605726422.120592) can0 1811F580#01000E380E7B0E8D
(1605726422.121579) can0 183280F5#0200000000000000
(1605726422.122069) can0 1811F580#04000E720E530E24
(1605726422.122658) can0 1811F580#07000E670E560EA7
(1605726422.123536) can0 184080F5#0100000000000000
(1605726422.124088) can0 1811F580#0A000E690E5B0E68
(1605726422.124713) can0 1811F580#0D000E6F0E860E73
(1605726422.125641) can0 1811F580#10000E6B0E750E69
(1605726422.126574) can0 1811F580#13000E540E9E0E58
(1605726422.127655) can0 1811F580#16000E750E700E86
(1605726422.128641) can0 1811F580#19000E840E770E5C
(1605726422.129614) can0 1811F580#1C000E7F0E850E52
(1605726422.130576) can0 1811F580#1F000E870E640E44
(1605726422.131578) can0 1811F580#22000E480E940E6F
(1605726422.132629) can0 1811F580#25000E590E4E0E93
(1605726422.133641) can0 1811F580#28000E6B0E5D0E59
(1605726422.134679) can0 1811F580#2B000E700E500E58
(1605726422.135672) can0 1811F580#2E000E600E400E66
(1605726422.136566) can0 1812F580#0100424242404243
(1605726422.137522) can0 181081F5#FFFF0E663E9DFFFF
(1605726422.138084) can0 1812F580#0700434242444342
(1605726422.138406) can0 1813F580#
(1605726422.139550) can0 183281F5#0100000000000000
(1605726422.140142) can0 1815F580#0001000000000000
(1605726422.140672) can0 1816F580#00118111000000
(1605726422.141540) can0 183281F5#0200000000000000
(1605726422.143293) can0 1816F580#00129111000000
(1605726422.143581) can0 1811F581#01000E620E750E6D
(1605726422.144134) can0 1811F581#04000E5B0E540E50
(1605726422.144476) can0 1811F581#07000E710E830E58
(1605726422.144791) can0 1814F580#
(1605726422.145022) can0 1833F580#
(1605726422.145410) can0 1811F581#0A000E7A0E420E4C
(1605726422.146038) can0 184081F5#0100000000000000
(1605726422.146625) can0 1811F581#0D000E380E320E65
(1605726422.147211) can0 183BF4E8#0401000000000000
(1605726422.148053) can0 1811F581#10000E9F0E3D0E4B
(1605726422.148640) can0 1811F581#13000E6B0E790E6A
(1605726422.149212) can0 183DF4E8#0111811100000000
(1605726422.149718) can0 1811F581#16000E720E520E79
(1605726422.150329) can0 1811F581#19000E4D0E6C0E5F
(1605726422.150843) can0 183DF4E8#0112911100000000
(1605726422.151259) can0 1811F581#1C000E7B
(1605726422.151884) can0 183DF4E8#0113A1110000006D
(1605726422.152394) can0 1812F581#0100424343424343
(1605726422.153076) can0 1812F581#070042
(1605726422.153943) can0 1813F581#
(1605726422.155331) can0 1815F581#0001000000000000
(1605726422.156308) can0 1816F581#00118111000000
(1605726422.157297) can0 1816F581#0012910D000000
(1605726422.158230) can0 1816F581#00138000000000
(1605726422.158969) can0 1814F581#
(1605726422.159365) can0 1833F580#
(1605726422.160016) can0 1833F581#
(1605726422.165467) can0 1841F580#00000000
(1605726422.167525) can0 181082F5#FFFF0E663E9DFFFF
(1605726422.169543) can0 183282F5#0100000000000000
(1605726422.171555) can0 183282F5#0200000000000000
(1605726422.173548) can0 184082F5#0100000000000000
(1605726422.176824) can0 1811F582#01000E770E520E73
(1605726422.177819) can0 1811F582#04000E770E870E6E
(1605726422.178822) can0 1811F582#07000E5C0E650E54
(1605726422.179556) can0 183BF4E8#0801000000000000
(1605726422.180079) can0 1811F582#0A000E5E0E670E59
(1605726422.180452) can0 1833F581#
(1605726422.180936) can0 1811F582#0D000E500E790E56
(1605726422.181561) can0 183DF4E8#0211811100000000
(1605726422.182106) can0 1811F582#10000E600E2C0E2C
(1605726422.182819) can0 1811F582#13000E6F0E530E74
(1605726422.183602) can0 183DF4E8#0212910D00000000
(1605726422.184140) can0 1811F582#16000E6A0E570E4F
(1605726422.184860) can0 1811F582#19000E3A0E510E6B
(1605726422.185593) can0 183DF4E8#0213800000000000
(1605726422.185902) can0 1811F582#1C000E51
(1605726422.186395) can0 1841F581#00000000
(1605726422.187032) can0 1812F582#0100434342434543
(1605726422.187628) can0 1812F582#070042
(1605726422.188611) can0 1813F582#
(1605726422.189867) can0 1815F582#0001000000000000
(1605726422.190817) can0 1816F582#00118111000000
(1605726422.191817) can0 1816F582#0012910D000000
(1605726422.192835) can0 1816F582#00138000000000
(1605726422.193579) can0 183BF4E8#0C01000000000000
(1605726422.193918) can0 1814F582#
(1605726422.194565) can0 1833F582#
(1605726422.195550) can0 183DF4E8#0311811100000000
(1605726422.197528) can0 181083F5#FFFF0E663E9DFFFF
(1605726422.199545) can0 183283F5#0100000000000000
(1605726422.201560) can0 183283F5#0200000000000000
(1605726422.203603) can0 184083F5#0100000000000000
(1605726422.206548) can0 1833F582#
(1605726422.211744) can0 1841F582#00000000
(1605726422.224721) can0 1811F583#01000E720E780E62
(1605726422.225705) can0 1811F583#04000E600E610E76
(1605726422.226708) can0 1811F583#07000E650E520E85
(1605726422.227692) can0 1811F583#0A000E5B0E750E94
(1605726422.228703) can0 1811F583#0D000E7D0E470E94
(1605726422.229704) can0 1811F583#10000E760E630E63
(1605726422.230705) can0 1811F583#13000E890E800E4D
(1605726422.231757) can0 1811F583#16000E850E6B0E71
(1605726422.232680) can0 1811F583#19000E890E760E67
(1605726422.233673) can0 1811F583#1C000E6E0E8B0E56
(1605726422.234686) can0 1811F583#1F000E6C0E460E60
(1605726422.235667) can0 1811F583#22000E5A0E570E99
(1605726422.236668) can0 1811F583#25000E4E0E5B0E63
(1605726422.237737) can0 1811F583#28000E860E6B0E7C
(1605726422.238721) can0 1811F583#2B000E5A0E400E7B
(1605726422.239677) can0 1811F583#2E000E490E8E0E69
(1605726422.240656) can0 1812F583#0100424442414243
(1605726422.241670) can0 1812F583#0700424141424240
(1605726422.243774) can0 1813F583#
(1605726422.243930) can0 1815F583#0001000000000000
(1605726422.244578) can0 1816F583#00118111000000
(1605726422.245562) can0 1816F583#00129111000000
(1605726422.246573) can0 1816F583#0013A111000000
(1605726422.247401) can0 183DF4E8#0312910D00000000
(1605726422.247666) can0 1814F583#
(1605726422.248298) can0 1833F583#
(1605726422.249415) can0 183DF4E8#0313800000000000
(1605726422.251425) can0 183BF4E8#1001000000000000
(1605726422.253410) can0 183DF4E8#0411811100000000
(1605726422.255405) can0 183DF4E8#0412911100000000
(1605726422.257404) can0 183DF4E8#0413A11100000000
(1605726422.263311) can0 1833F583#
(1605726422.268488) can0 1841F583#00000000
(1605726422.290473) can0 1830E8F4#0800000000000000
(1605726422.293433) can0 1838F4E8#0000000000FFFFFF
(1605726422.389430) can0 1830E8F4#0800000000000000
(1605726422.391528) can0 1838F4E8#0000000000FFFFFF
(1605726422.531504) can0 1830CCE8#010139B2393439D3
(1605726422.533495) can0 1830CCE8#020439D339D039C3
(1605726422.535512) can0 1830CCE8#030739D639C2398F
(1605726422.537493) can0 1830CCE8#040A39A53976395E
(1605726422.539493) can0 1830CCE8#050D399F39983960
(1605726422.541477) can0 1830CCE8#0610396E396C39A7
(1605726422.543535) can0 1830CCE8#0713399339B339B6
(1605726422.545514) can0 1830CCE8#08163972397F391A
(1605726422.547488) can0 1830CCE8#09193984394739AC
(1605726422.549480) can0 1830CCE8#0A1C398E39E939CE
(1605726422.551502) can0 1830CCE8#0B1F39CF39AE39D4
(1605726422.553508) can0 1830CCE8#0C22399339AA3992
(1605726422.555484) can0 1830CCE8#0D25398139BB0000
(1605726422.557620) can0 1831CCE8#0101424242404243
(1605726422.559482) can0 1831CCE8#0207434242444342
(1605726422.561490) can0 1831CCE8#030D424343424343
(1605726422.563487) can0 1831CCE8#0413424343424345
(1605726422.565483) can0 1831CCE8#0519434242444241
(1605726422.567514) can0 1831CCE8#061F424342414142
(1605726422.569520) can0 1831CCE8#07254240FFFFFFFF
(1605726422.571509) can0 1834CCE8#0104040700484144
(1605726422.573499) can0 1834CCE8#023E9D3E9D3EAC50
(1605726422.575473) can0 1834CCE8#0315E3166600F163
(1605726422.577492) can0 1834CCE8#043EF83E62470564
(1605726422.579477) can0 1834CCE8#0500C71AA7260200
(1605726422.581500) can0 1834CCE8#0600FF000000FF00
(1605726422.583505) can0 1838CCE8#0000FF20FFFFFFFF
(1605726422.585498) can0 183DCCE8#0100000000000000
(1605726422.587503) can0 183DCCE8#02000000FFFFFFFF
(1605726422.589545) can0 1840CCE8#3EDAA8383E943EA8
(1605726422.618286) can0 181080F5#FFFF0E663E9DFFFF
(1605726422.619512) can0 183280F5#0100000000000000
(1605726422.621505) can0 183280F5#0200000000000000
(1605726422.623510) can0 184080F5#0100000000000000
(1605726422.637502) can0 181081F5#FFFF0E663E9DFFFF
(1605726422.638603) can0 1811F580#01000E380E7B0E8D
(1605726422.639526) can0 183281F5#0100000000000000
(1605726422.640067) can0 1811F580#04000E720E530E24
(1605726422.640637) can0 1811F580#07000E670E560EA7
(1605726422.641518) can0 183281F5#0200000000000000
(1605726422.642073) can0 1811F580#0A000E690E5B0E68
(1605726422.642654) can0 1811F580#0D000E6F0E860E73
(1605726422.643565) can0 184081F5#0100000000000000
(1605726422.644101) can0 1811F580#10000E6B0E750E69
(1605726422.644655) can0 1811F580#13000E540E9E0E58
(1605726422.645604) can0 1811F580#16000E750E700E86
(1605726422.646676) can0 1811F580#19000E840E770E5C
(1605726422.647621) can0 1811F580#1C000E7F0E850E52
(1605726422.648657) can0 1811F580#1F000E870E640E44
(1605726422.649650) can0 1811F580#22000E480E940E6F
(1605726422.650603) can0 1811F580#25000E590E4E0E93
(1605726422.651602) can0 1811F580#28000E6B0E5D0E59
(1605726422.652625) can0 1811F580#2B000E710E500E58
(1605726422.653641) can0 1811F580#2E000E600E400E66
(1605726422.654627) can0 1812F580#0100424242404243
(1605726422.655595) can0 1812F580#0700434242444342
(1605726422.656381) can0 1813F580#
(1605726422.657638) can0 1815F580#0001000000000000
(1605726422.658628) can0 1816F580#00118111000000
(1605726422.659630) can0 1816F580#00129111000000
(1605726422.660626) can0 1816F580#0013A111000000
(1605726422.661538) can0 183BF4E8#0401000000000000
(1605726422.661965) can0 1814F580#
(1605726422.662338) can0 1833F580#
(1605726422.663556) can0 183DF4E8#0111811100000000
(1605726422.663919) can0 1833F580#
(1605726422.665558) can0 183DF4E8#0112911100000000
(1605726422.667508) can0 183DF4E8#0113A11100000000
(1605726422.669490) can0 181082F5#FFFF0E663E9DFFFF
(1605726422.671515) can0 183282F5#0100000000000000
(1605726422.673510) can0 183282F5#0200000000000000
(1605726422.675514) can0 184082F5#0100000000000000
(1605726422.682499) can0 1841F580#00000000
(1605726422.695282) can0 1811F581#01000E620E750E6C
(1605726422.696350) can0 1811F581#04000E5B0E540E50
(1605726422.697291) can0 1811F581#07000E710E830E58
(1605726422.697816) can0 181083F5#FFFF0E663E9DFFFF
(1605726422.698471) can0 1811F581#0A000E7A0E410E4C
(1605726422.699317) can0 1811F581#0D000E380E320E65
(1605726422.699843) can0 183283F5#0100000000000000
(1605726422.700536) can0 1811F581#10000E9F0E3E0E4B
(1605726422.701328) can0 1811F581#13000E6B0E790E6A
(1605726422.701831) can0 183283F5#0200000000000000
(1605726422.702396) can0 1811F581#16000E720E520E79
(1605726422.703270) can0 1811F581#19000E4D0E6C0E5F
(1605726422.703865) can0 184083F5#0100000000000000
(1605726422.704290) can0 1811F581#1C000E7B
(1605726422.704839) can0 1811F583#01000E720E780E62
(1605726422.705448) can0 1812F581#0100424343424343
(1605726422.705962) can0 1811F583#04000E600E610E76
(1605726422.706272) can0 1812F581#070042
(1605726422.706942) can0 1811F583#07000E650E520E85
(1605726422.707324) can0 1813F581#
(1605726422.707770) can0 1811F583#0A000E5B0E750E94
(1605726422.708403) can0 1815F581#0001000000000000
(1605726422.708873) can0 1811F583#0D000E7D0E480E94
(1605726422.710011) can0 1811F583#10000E760E630E63
(1605726422.710512) can0 1816F581#00118111000000
(1605726422.711071) can0 1811F583#13000E890E800E4D
(1605726422.711603) can0 1816F581#00138000000000
(1605726422.712146) can0 1811F583#16000E850E6B0E71
(1605726422.712441) can0 1814F581#
(1605726422.712988) can0 1811F583#19000E890E760E67
(1605726422.713491) can0 1816F581#0012910D000000
(1605726422.714046) can0 1811F583#1C000E6E0E8B0E56
(1605726422.714760) can0 1811F583#1F000E6C0E460E60
(1605726422.715845) can0 1811F583#22000E5A0E580E98
(1605726422.716813) can0 1811F583#25000E4E0E5B0E63
(1605726422.717738) can0 1811F583#28000E860E6C0E7C
(1605726422.718728) can0 1811F583#2B000E5A0E400E7B
(1605726422.719683) can0 183BF4E8#0801000000000000
(1605726422.720012) can0 1811F583#2E000E490E8E0E69
(1605726422.720856) can0 1812F583#0100424442414243
(1605726422.721544) can0 183DF4E8#0211811100000063
(1605726422.721985) can0 1812F583#0700424141424240
(1605726422.722436) can0 1813F583#
(1605726422.723508) can0 183DF4E8#021380000000004D
(1605726422.724134) can0 1815F583#0001000000000000
(1605726422.724720) can0 1816F583#00118111000000
(1605726422.725281) can0 1811F582#01000E770E520E73
(1605726422.725791) can0 1816F583#00129111000000
(1605726422.726392) can0 1811F582#04000E770E870E6E
(1605726422.726906) can0 1811F582#07000E5C0E640E54
(1605726422.727431) can0 1816F583#0013A111000000
(1605726422.727976) can0 1811F582#0A000E5E0E670E59
(1605726422.728351) can0 1814F583#
(1605726422.728695) can0 1833F583#
(1605726422.729063) can0 1811F582#0D000E500E7A0E56
(1605726422.729750) can0 183DF4E8#0212910D00000067
(1605726422.730225) can0 1811F582#10000E600E2C0E2D
(1605726422.730851) can0 1811F582#13000E6F0E520E74
(1605726422.731989) can0 1811F582#16000E6A0E570E4F
(1605726422.732940) can0 1811F582#19000E3B0E510E6B
(1605726422.733838) can0 1811F582#1C000E51
(1605726422.734842) can0 1812F582#0100434342434543
(1605726422.735709) can0 1812F582#070042
(1605726422.736598) can0 1813F582#
(1605726422.737849) can0 1815F582#0001000000000000
(1605726422.738804) can0 1816F582#00118111000000
(1605726422.739795) can0 1816F582#0012910D000000
(1605726422.740855) can0 1816F582#00138000000000
(1605726422.741547) can0 1814F582#
(1605726422.742576) can0 1833F582#
(1605726422.743499) can0 183BF4E8#1001000000000000
(1605726422.743824) can0 1833F582#
(1605726422.744204) can0 1833F583#
(1605726422.744813) can0 1841F582#00000000
(1605726422.745500) can0 183DF4E8#0411811100000000
(1605726422.747518) can0 183DF4E8#0412911100000073
(1605726422.748640) can0 1841F583#00000000
(1605726422.749529) can0 183DF4E8#0413A11100000054
(1605726422.751490) can0 183BF4E8#0C01000000000000
(1605726422.753479) can0 183DF4E8#0311811100000000
(1605726422.755522) can0 183DF4E8#0312910D00000000
(1605726422.757644) can0 183DF4E8#0313800000000000
(1605726422.770989) can0 1833F581#
(1605726422.775967) can0 1833F581#
(1605726422.782124) can0 1841F581#00000000
(1605726422.797019) can0 1830E8F4#0800000000000000
(1605726422.818197) can0 1838F4E8#0000000000FFFFFF
(1605726422.898071) can0 1830E8F4#0800000000000000
(1605726422.901507) can0 1838F4E8#0000000000FFFFFF
(1605726423.117469) can0 181080F5#FFFF0E663E9DFFFF
(1605726423.119494) can0 183280F5#0100000000000000
(1605726423.120633) can0 1811F580#01000E390E7B0E8D
(1605726423.121547) can0 183280F5#0200000000000000
(1605726423.122047) can0 1811F580#04000E720E530E24
(1605726423.122655) can0 1811F580#07000E670E550EA7
(1605726423.123490) can0 184080F5#0100000000000000
(1605726423.124080) can0 1811F580#0A000E690E5A0E68
(1605726423.124688) can0 1811F580#0D000E6F0E860E73
(1605726423.125657) can0 1811F580#10000E6A0E750E69
(1605726423.126646) can0 1811F580#13000E540E9E0E58
(1605726423.127629) can0 1811F580#16000E750E700E86
(1605726423.128702) can0 1811F580#19000E840E770E5C
(1605726423.129701) can0 1811F580#1C000E7F0E850E52
(1605726423.130654) can0 1811F580#1F000E870E640E44
(1605726423.131669) can0 1811F580#22000E480E940E6F
(1605726423.132666) can0 1811F580#25000E590E4E0E94
(1605726423.133614) can0 1811F580#28000E6B0E5D0E59
(1605726423.134686) can0 1811F580#2B000E700E4F0E58
(1605726423.135692) can0 1811F580#2E000E600E400E66
(1605726423.136663) can0 1812F580#0100424242404243
(1605726423.137483) can0 181081F5#FFFF0E663E9DFFFF
(1605726423.138001) can0 1812F580#0700434242444342
(1605726423.138384) can0 1813F580#
(1605726423.139320) can0 1811F581#01000E620E750E6C
(1605726423.139856) can0 1815F580#0001000000000000
(1605726423.140398) can0 1811F581#04000E5A0E540E50
(1605726423.140947) can0 1816F580#00118111000000
(1605726423.141548) can0 1811F581#07000E710E830E58
(1605726423.142098) can0 1816F580#00129111000000
(1605726423.142617) can0 1811F581#0A000E7A0E410E4C
(1605726423.143169) can0 1816F580#0013A111000000
(1605726423.143712) can0 1811F581#0D000E390E320E65
(1605726423.144072) can0 1814F580#
(1605726423.144591) can0 1811F581#10000E9F0E3E0E4B
(1605726423.145133) can0 183281F5#0100000000000000
(1605726423.145703) can0 1811F581#13000E6B0E790E6A
(1605726423.146297) can0 183281F5#0200000000000000
(1605726423.146914) can0 1811F581#16000E720E520E79
(1605726423.147402) can0 1811F581#19000E4D0E6C0E5F
(1605726423.147706) can0 1833F580#
(1605726423.148303) can0 184081F5#0100000000000000
(1605726423.148705) can0 1811F581#1C000E7B
(1605726423.149270) can0 1812F581#0100424343424343
(1605726423.150096) can0 1812F581#070042
(1605726423.150998) can0 1813F581#
(1605726423.152359) can0 1815F581#0001000000000000
(1605726423.153344) can0 1816F581#00118111000000
(1605726423.154228) can0 1816F581#0012910D000000
(1605726423.155285) can0 1816F581#00138000000000
(1605726423.155826) can0 183ECCE8#4139E9391A444540
(1605726423.156147) can0 1814F581#
(1605726423.157575) can0 183FCCE8#0450002015E33E9D
(1605726423.159438) can0 1840CCE8#3EDAAA183E943EA8
(1605726423.159753) can0 1833F580#
(1605726423.161480) can0 183BF4E8#0401000000000000
(1605726423.163502) can0 183DF4E8#0111811100000050
(1605726423.164548) can0 1841F580#00000000
(1605726423.165487) can0 183DF4E8#0112911100000058
(1605726423.167468) can0 183DF4E8#0113A1110000004C
(1605726423.169470) can0 183BF4E8#0801000000000000
(1605726423.171462) can0 183DF4E8#0211811100000000
(1605726423.173473) can0 183DF4E8#0212910D00000000
(1605726423.175477) can0 183DF4E8#0213800000000000
(1605726423.176989) can0 1833F581#
(1605726423.177562) can0 181082F5#FFFF0E663E9DFFFF
(1605726423.179488) can0 183282F5#0100000000000000
(1605726423.181520) can0 183282F5#0200000000000000
(1605726423.182894) can0 1811F582#01000E770E520E73
(1605726423.183240) can0 1833F581#
(1605726423.183712) can0 184082F5#0100000000000000
(1605726423.184280) can0 1811F582#04000E760E870E6E
(1605726423.184854) can0 1811F582#07000E5C0E640E54
(1605726423.185920) can0 1811F582#0A000E5E0E670E58
(1605726423.186913) can0 1811F582#0D000E500E7A0E56
(1605726423.187859) can0 1811F582#10000E5F0E2C0E2C
(1605726423.188225) can0 1841F581#00000000
(1605726423.188867) can0 1811F582#13000E6F0E520E74
(1605726423.190431) can0 1811F582#16000E6A0E570E4F
(1605726423.190975) can0 1811F582#19000E3A0E520E6B
(1605726423.191751) can0 1811F582#1C000E51
(1605726423.192834) can0 1812F582#0100434342434543
(1605726423.193674) can0 1812F582#070042
(1605726423.194578) can0 1813F582#
(1605726423.195952) can0 1815F582#0001000000000000
(1605726423.196819) can0 1816F582#00118111000000
(1605726423.197487) can0 181083F5#FFFF0E663E9DFFFF
(1605726423.197975) can0 1816F582#0012910D000000
(1605726423.198886) can0 1816F582#00138000000000
(1605726423.199468) can0 183283F5#0100000000000000
(1605726423.199830) can0 1814F582#
(1605726423.201494) can0 183283F5#0200000000000000
(1605726423.203555) can0 184083F5#0100000000000000
(1605726423.214594) can0 1833F582#
(1605726423.219473) can0 183BF4E8#0C01000000000000
(1605726423.219817) can0 1833F582#
(1605726423.221468) can0 183DF4E8#0311811100000000
(1605726423.223457) can0 183DF4E8#0312910D00000000
(1605726423.225470) can0 183DF4E8#0313800000000000
(1605726423.225896) can0 1841F582#00000000
(1605726423.227761) can0 1811F583#01000E720E780E62
(1605726423.228759) can0 1811F583#04000E600E610E76
(1605726423.229774) can0 1811F583#07000E650E520E85
(1605726423.230771) can0 1811F583#0A000E5B0E750E94
(1605726423.231811) can0 1811F583#0D000E7D0E480E94
(1605726423.232765) can0 1811F583#10000E760E630E63
(1605726423.233758) can0 1811F583#13000E890E800E4D
(1605726423.234821) can0 1811F583#16000E850E6B0E70
(1605726423.235786) can0 1811F583#19000E890E760E67
(1605726423.236756) can0 1811F583#1C000E6E0E8B0E56
(1605726423.237750) can0 1811F583#1F000E6C0E460E60
(1605726423.238788) can0 1811F583#22000E5A0E580E98
(1605726423.239752) can0 1811F583#25000E4E0E5B0E63
(1605726423.240779) can0 1811F583#28000E860E6C0E7B
(1605726423.241784) can0 1811F583#2B000E5A0E400E7B
(1605726423.242817) can0 1811F583#2E000E490E8E0E69
(1605726423.243782) can0 1812F583#0100424442414243
(1605726423.244778) can0 1812F583#0700424141424240
(1605726423.245521) can0 1813F583#
(1605726423.246814) can0 1815F583#0001000000000000
(1605726423.247741) can0 1816F583#00118111000000
(1605726423.248720) can0 1816F583#00129111000000
(1605726423.249759) can0 1816F583#0013A111000000
(1605726423.250496) can0 1814F583#
(1605726423.251472) can0 1833F583#
(1605726423.259484) can0 183BF4E8#1001000000000000
(1605726423.261467) can0 183DF4E8#0411811100000000
(1605726423.263463) can0 183DF4E8#0412911100000000
(1605726423.265458) can0 183DF4E8#0413A11100000000
(1605726423.266507) can0 1833F583#
(1605726423.271622) can0 1841F583#00000000
(1605726423.303225) can0 1830E8F4#0800000000000000
(1605726423.321478) can0 1838F4E8#0000000000FFFFFF
(1605726423.404079) can0 1830E8F4#0800000000000000
(1605726423.427469) can0 1838F4E8#0000000000FFFFFF
(1605726423.563182) can0 1830E8F4#0800000000000000
(1605726423.565977) can0 1838F4E8#0000000000FFFFFF
(1605726423.618210) can0 181080F5#FFFF0E663E9DFFFF
(1605726423.619452) can0 183280F5#0100000000000000
(1605726423.621447) can0 183280F5#0200000000000000
(1605726423.623446) can0 184080F5#0100000000000000
(1605726423.637428) can0 181081F5#FFFF0E663E9DFFFF
(1605726423.637968) can0 1811F580#01000E390E7B0E8D
(1605726423.638675) can0 1811F580#04000E720E530E24
(1605726423.639499) can0 183281F5#0100000000000000
(1605726423.640058) can0 1811F580#07000E670E550EA7
(1605726423.640672) can0 1811F580#0A000E690E5A0E68
(1605726423.641472) can0 183281F5#0200000000000000
(1605726423.642014) can0 1811F580#0D000E700E860E73
(1605726423.642644) can0 1811F580#10000E6A0E750E69
(1605726423.643470) can0 184081F5#0100000000000000
(1605726423.644026) can0 1811F580#13000E540E9F0E58
(1605726423.644693) can0 1811F580#16000E750E700E86
(1605726423.645688) can0 1811F580#19000E840E770E5C
(1605726423.646690) can0 1811F580#1C000E7F0E850E52
(1605726423.647657) can0 1811F580#1F000E870E640E44
(1605726423.648709) can0 1811F580#22000E480E940E6F
(1605726423.649426) can0 1830CCE8#010139B3393339D2
(1605726423.649961) can0 1811F580#25000E590E4E0E94
(1605726423.650770) can0 1811F580#28000E6B0E5D0E5A
(1605726423.651421) can0 1830CCE8#020439D239D039C3
(1605726423.651993) can0 1811F580#2B000E700E4F0E58
(1605726423.652677) can0 1811F580#2E000E610E400E65
(1605726423.653466) can0 1830CCE8#030739D639C2398F
(1605726423.653942) can0 1812F580#0100424242404243
(1605726423.654706) can0 1812F580#0700434242444342
(1605726423.655417) can0 1830CCE8#040A39A63975395E
(1605726423.655768) can0 1813F580#
(1605726423.656412) can0 1811F581#01000E630E750E6C
(1605726423.656993) can0 1815F580#0001000000000000
(1605726423.657438) can0 1811F581#04000E5A0E540E50
(1605726423.657987) can0 1816F580#00118111000000
(1605726423.658685) can0 1811F581#07000E710E830E58
(1605726423.659096) can0 1816F580#00129111000000
(1605726423.659612) can0 1811F581#0A000E7A0E410E4C
(1605726423.660142) can0 1816F580#0013A111000000
(1605726423.660713) can0 1811F581#0D000E390E320E65
(1605726423.661346) can0 1814F580#
(1605726423.661754) can0 1811F581#10000E9F0E3E0E4B
(1605726423.662070) can0 1830CCE8#050D399D3998395F
(1605726423.662700) can0 1811F581#13000E6B0E790E6A
(1605726423.663322) can0 1830CCE8#0610396F396D39A7
(1605726423.663847) can0 1811F581#16000E720E520E79
(1605726423.664340) can0 1811F581#19000E4D0E6C0E5F
(1605726423.664887) can0 1830CCE8#08163971397F3919
(1605726423.665455) can0 1811F581#1C000E7B
(1605726423.665786) can0 1830CCE8#09193984394839AC
(1605726423.666403) can0 1812F581#0100424343424343
(1605726423.666940) can0 1830CCE8#0713399339B239B5
(1605726423.667279) can0 1812F581#070042
(1605726423.667870) can0 1830CCE8#0A1C398E39E939CF
(1605726423.668234) can0 1813F581#
(1605726423.668580) can0 1833F580#
(1605726423.669021) can0 1833F580#
(1605726423.669392) can0 1815F581#0001000000000000
(1605726423.669863) can0 1830CCE8#0B1F39CF39AD39D4
(1605726423.670406) can0 1816F581#00118111000000
(1605726423.671322) can0 1816F581#0012910D000000
(1605726423.671794) can0 1830CCE8#0C22399339AA3992
(1605726423.672326) can0 1816F581#00138000000000
(1605726423.673096) can0 1814F581#
(1605726423.673689) can0 1830CCE8#0D25398139BB0000
(1605726423.674009) can0 1833F581#
(1605726423.675071) can0 1833F581#
(1605726423.675587) can0 1831CCE8#0101424242404243
(1605726423.677473) can0 1831CCE8#0207434242444342
(1605726423.679465) can0 1831CCE8#030D424343424343
(1605726423.681467) can0 1831CCE8#0413424343424345
(1605726423.682583) can0 1841F580#00000000
(1605726423.683432) can0 1831CCE8#0519434242444241
(1605726423.685477) can0 1831CCE8#061F424342414142
(1605726423.687436) can0 1831CCE8#07254240FFFFFFFF
(1605726423.689434) can0 1834CCE8#0104040700484144
(1605726423.691192) can0 1841F581#00000000
(1605726423.691792) can0 1834CCE8#023E9D3E9D3EAC50
(1605726423.693424) can0 1834CCE8#0315E3166600F163
(1605726423.695416) can0 1834CCE8#043EF83E62470564
(1605726423.697429) can0 1834CCE8#0500C71AA7260200
(1605726423.699483) can0 1834CCE8#0600FF000000FF00
(1605726423.701440) can0 1838CCE8#0000FF20FFFFFFFF
(1605726423.703487) can0 183DCCE8#0100000000000000
(1605726423.705432) can0 183DCCE8#02000000FFFFFFFF
(1605726423.707598) can0 1840CCE8#3EDAABA83E943EA8
(1605726423.709416) can0 181082F5#FFFF0E663E9DFFFF
(1605726423.711468) can0 183282F5#0100000000000000
(1605726423.713433) can0 183282F5#0200000000000000
(1605726423.715427) can0 184082F5#0100000000000000
(1605726423.717435) can0 183BF4E8#0401000000000000
(1605726423.719423) can0 183DF4E8#0111811100000050
(1605726423.721423) can0 183DF4E8#0112911100000058
(1605726423.723423) can0 183DF4E8#0113A1110000004C
(1605726423.725449) can0 183BF4E8#0801000000000000
(1605726423.727431) can0 183DF4E8#0211811100000000
(1605726423.729439) can0 183DF4E8#0212910D00000000
(1605726423.731442) can0 183DF4E8#0213800000000000
(1605726423.733436) can0 181083F5#FFFF0E663E9DFFFF
(1605726423.735436) can0 183283F5#0100000000000000
(1605726423.735990) can0 1811F582#01000E770E520E73
(1605726423.736915) can0 1811F582#04000E760E870E6E
(1605726423.737447) can0 183283F5#0200000000000000
(1605726423.738013) can0 1811F582#07000E5D0E640E54
(1605726423.739014) can0 1811F582#0A000E5E0E670E58
(1605726423.739695) can0 184083F5#0100000000000000
(1605726423.740045) can0 1811F582#0D000E500E7A0E56
(1605726423.740904) can0 1811F582#10000E600E2C0E2C
(1605726423.741977) can0 1811F582#13000E6F0E520E74
(1605726423.742882) can0 1811F582#16000E6A0E570E4F
(1605726423.743937) can0 1811F582#19000E3A0E510E6B
(1605726423.744769) can0 1811F582#1C000E50
(1605726423.745884) can0 1812F582#0100434342434543
(1605726423.746743) can0 1812F582#070042
(1605726423.747823) can0 1811F583#01000E730E780E62
(1605726423.748158) can0 1813F582#
(1605726423.748794) can0 1811F583#04000E5F0E620E76
(1605726423.749408) can0 1815F582#0001000000000000
(1605726423.750109) can0 1811F583#07000E650E520E85
(1605726423.750532) can0 1816F582#00118111000000
(1605726423.751134) can0 1811F583#0A000E5B0E750E94
(1605726423.751624) can0 1816F582#0012910D000000
(1605726423.752264) can0 1811F583#0D000E7E0E480E94
(1605726423.752609) can0 1816F582#00138000000000
(1605726423.753221) can0 1811F583#10000E760E630E63
(1605726423.753542) can0 1814F582#
(1605726423.754033) can0 1811F583#13000E890E800E4D
(1605726423.754385) can0 1833F582#
(1605726423.755008) can0 1811F583#16000E850E6B0E70
(1605726423.755638) can0 183BF4E8#0C01000000000000
(1605726423.756128) can0 1811F583#19000E890E760E67
(1605726423.756685) can0 183DF4E8#0311811100000085
(1605726423.757297) can0 1811F583#1C000E6F0E8C0E56
(1605726423.757643) can0 183DF4E8#0312910D00000094
(1605726423.758285) can0 1811F583#1F000E6C0E460E60
(1605726423.758850) can0 1811F583#22000E5A0E570E98
(1605726423.759440) can0 183DF4E8#0313800000000094
(1605726423.759971) can0 1811F583#25000E4E0E5B0E64
(1605726423.760785) can0 1811F583#28000E860E6C0E7C
(1605726423.761951) can0 1811F583#2B000E5A0E3F0E7B
(1605726423.762800) can0 1811F583#2E000E490E8E0E68
(1605726423.763793) can0 1812F583#0100424442414243
(1605726423.764772) can0 1812F583#0700424141424240
(1605726423.765515) can0 1813F583#
(1605726423.765868) can0 1833F582#
(1605726423.766858) can0 1815F583#0001000000000000
(1605726423.767763) can0 1816F583#00118111000000
(1605726423.769318) can0 1816F583#00129111000000
(1605726423.770110) can0 1816F583#0013A111000000
(1605726423.770672) can0 1814F583#
(1605726423.771514) can0 1833F583#
(1605726423.771978) can0 1841F582#00000000
(1605726423.775470) can0 183BF4E8#1001000000000000
(1605726423.777445) can0 183DF4E8#0411811100000000
(1605726423.779443) can0 183DF4E8#0412911100000000
(1605726423.781448) can0 183DF4E8#0413A11100000000
(1605726423.785515) can0 1833F583#
(1605726423.791661) can0 1841F583#00000000
(1605726423.809618) can0 1830E8F4#0800000000000000
(1605726423.863457) can0 1838F4E8#0000000000FFFFFF
(1605726423.910052) can0 1830E8F4#0800000000000000
(1605726423.929446) can0 1838F4E8#0000000000FFFFFF
(1605726424.117413) can0 181080F5#FFFF0E663E9DFFFF
(1605726424.119422) can0 183280F5#0100000000000000
(1605726424.121477) can0 183280F5#0200000000000000
(1605726424.123420) can0 184080F5#0100000000000000
(1605726424.123963) can0 1811F580#01000E390E7B0E8D
(1605726424.124769) can0 1811F580#04000E720E530E24
(1605726424.125750) can0 1811F580#07000E670E550EA7
(1605726424.126725) can0 1811F580#0A000E690E5A0E68
(1605726424.127760) can0 1811F580#0D000E700E860E74
(1605726424.128736) can0 1811F580#10000E6A0E750E69
(1605726424.129794) can0 1811F580#13000E540E9E0E58
(1605726424.130734) can0 1811F580#16000E750E700E86
(1605726424.131768) can0 1811F580#19000E840E770E5C
(1605726424.132744) can0 1811F580#1C000E7F0E850E52
(1605726424.133719) can0 1811F580#1F000E870E640E44
(1605726424.134741) can0 1811F580#22000E480E940E6F
(1605726424.135684) can0 1811F580#25000E590E4E0E94
(1605726424.136682) can0 1811F580#28000E6B0E5D0E5A
(1605726424.137465) can0 181081F5#FFFF0E663E9DFFFF
(1605726424.138097) can0 1811F580#2B000E700E4F0E58
(1605726424.138678) can0 1811F580#2E000E610E400E65
(1605726424.139481) can0 183281F5#0100000000000000
(1605726424.140167) can0 1812F580#0100424242404243
(1605726424.140645) can0 1812F580#0700434242444342
(1605726424.141400) can0 1811F581#01000E620E750E6D
(1605726424.141820) can0 1813F580#
(1605726424.142131) can0 183281F5#0200000000000000
(1605726424.142790) can0 1811F581#04000E5B0E540E50
(1605726424.143411) can0 1815F580#0001000000000000
(1605726424.143889) can0 1811F581#07000E710E830E58
(1605726424.144560) can0 1811F581#0A000E7A0E420E4C
(1605726424.145008) can0 1816F580#00129111000000
(1605726424.145564) can0 1811F581#0D000E380E320E65
(1605726424.146082) can0 1816F580#0013A111000000
(1605726424.146774) can0 1811F581#10000E9F0E3E0E4B
(1605726424.147337) can0 1814F580#
(1605726424.147744) can0 1811F581#13000E6B0E790E6A
(1605726424.148016) can0 1833F580#
(1605726424.148540) can0 1816F580#00118111000000
(1605726424.148913) can0 1811F581#16000E710E520E79
(1605726424.149484) can0 1811F581#19000E4D0E6C0E5F
(1605726424.150060) can0 184081F5#0100000000000000
(1605726424.150385) can0 1811F581#1C000E7B
(1605726424.151103) can0 183BF4E8#0401000000000000
(1605726424.151706) can0 1812F581#0100424343424343
(1605726424.152322) can0 183DF4E8#011291110000004C
(1605726424.152679) can0 1812F581#070042
(1605726424.153024) can0 1813F581#
(1605726424.153686) can0 183DF4E8#0113A11100000065
(1605726424.154354) can0 1815F581#0001000000000000
(1605726424.155311) can0 1816F581#00118111000000
(1605726424.156299) can0 1816F581#0012910D000000
(1605726424.157323) can0 1816F581#00138000000000
(1605726424.158106) can0 1814F581#
(1605726424.159088) can0 1833F581#
(1605726424.161409) can0 183DF4E8#011181110000006A
(1605726424.162449) can0 1833F580#
(1605726424.163454) can0 183BF4E8#0801000000000000
(1605726424.165406) can0 183DF4E8#0211811100000000
(1605726424.167403) can0 183DF4E8#0212910D00000000
(1605726424.168057) can0 1841F580#00000000
(1605726424.169469) can0 183DF4E8#0213800000000000
(1605726424.170030) can0 1833F581#
(1605726424.171449) can0 181082F5#FFFF0E663E9DFFFF
(1605726424.172914) can0 1811F582#01000E770E520E73
(1605726424.173471) can0 183282F5#0100000000000000
(1605726424.174033) can0 1811F582#04000E760E870E6E
(1605726424.174937) can0 1811F582#07000E5D0E640E54
(1605726424.175478) can0 183282F5#0200000000000000
(1605726424.176027) can0 1811F582#0A000E5E0E670E58
(1605726424.176594) can0 1841F581#00000000
(1605726424.177039) can0 1811F582#0D000E500E7A0E56
(1605726424.177710) can0 184082F5#0100000000000000
(1605726424.178346) can0 1811F582#10000E600E2C0E2C
(1605726424.179088) can0 1811F582#13000E700E520E74
(1605726424.179945) can0 1811F582#16000E6A0E570E4F
(1605726424.180922) can0 1811F582#19000E3A0E510E6B
(1605726424.181776) can0 1811F582#1C000E50
(1605726424.182920) can0 1812F582#0100434342434543
(1605726424.183718) can0 1812F582#070042
(1605726424.184648) can0 1813F582#
(1605726424.185957) can0 1815F582#0001000000000000
(1605726424.186952) can0 1816F582#00118111000000
(1605726424.187940) can0 1816F582#0012910D000000
(1605726424.188912) can0 1816F582#00138000000000
(1605726424.189441) can0 183BF4E8#0C01000000000000
(1605726424.189772) can0 1814F582#
(1605726424.190637) can0 1833F582#
(1605726424.191400) can0 183DF4E8#0311811100000000
(1605726424.191794) can0 1833F582#
(1605726424.193369) can0 183DF4E8#0312910D00000000
(1605726424.195444) can0 183DF4E8#0313800000000000
(1605726424.197441) can0 181083F5#FFFF0E663E9DFFFF
(1605726424.199425) can0 183283F5#0100000000000000
(1605726424.201457) can0 183283F5#0200000000000000
(1605726424.203417) can0 184083F5#0100000000000000
(1605726424.216784) can0 1841F582#00000000
(1605726424.227799) can0 1811F583#01000E730E780E62
(1605726424.228803) can0 1811F583#04000E5F0E620E76
(1605726424.229799) can0 1811F583#07000E650E520E85
(1605726424.230788) can0 1811F583#0A000E5B0E750E94
(1605726424.231948) can0 1811F583#0D000E7E0E480E94
(1605726424.232840) can0 1811F583#10000E760E630E63
(1605726424.233821) can0 1811F583#13000E890E800E4D
(1605726424.234786) can0 1811F583#16000E850E6B0E70
(1605726424.235811) can0 1811F583#19000E890E760E67
(1605726424.236871) can0 1811F583#1C000E6F0E8C0E57
(1605726424.237847) can0 1811F583#1F000E6C0E460E61
(1605726424.238808) can0 1811F583#22000E5A0E570E98
(1605726424.239789) can0 1811F583#25000E4E0E5B0E64
(1605726424.240848) can0 1811F583#28000E860E6C0E7C
(1605726424.241825) can0 1811F583#2B000E5A0E3F0E7B
(1605726424.242817) can0 1811F583#2E000E490E8E0E68
(1605726424.243787) can0 1812F583#0100424442414243
(1605726424.244809) can0 1812F583#0700424141424240
(1605726424.245555) can0 1813F583#
(1605726424.246894) can0 1815F583#0001000000000000
(1605726424.247835) can0 1816F583#00118111000000
(1605726424.248768) can0 1816F583#00129111000000
(1605726424.249779) can0 1816F583#0013A111000000
(1605726424.250593) can0 1814F583#
(1605726424.251570) can0 1833F583#
(1605726424.263385) can0 183ECCE8#4139E9391A444540
(1605726424.265388) can0 183FCCE8#0450002015E33E9D
(1605726424.266083) can0 1833F583#
(1605726424.267376) can0 1840CCE8#3EDAAD883E943EA8
(1605726424.269410) can0 183BF4E8#1001000000000000
(1605726424.271410) can0 183DF4E8#0411811100000000
(1605726424.272149) can0 1841F583#00000000
(1605726424.273418) can0 183DF4E8#0412911100000000
(1605726424.275392) can0 183DF4E8#0413A11100000000
(1605726424.315875) can0 1830E8F4#0800000000000000
(1605726424.321410) can0 1838F4E8#0000000000FFFFFF
(1605726424.416363) can0 1830E8F4#0800000000000000
(1605726424.421388) can0 1838F4E8#0000000000FFFFFF
(1605726424.618148) can0 181080F5#FFFF0E663E9DFFFF
(1605726424.619385) can0 183280F5#0100000000000000
(1605726424.621373) can0 183280F5#0200000000000000
(1605726424.623377) can0 184080F5#0100000000000000
(1605726424.637360) can0 181081F5#FFFF0E663E9DFFFF
(1605726424.637898) can0 1811F580#01000E380E7B0E8D
(1605726424.638781) can0 1811F580#04000E720E530E24
(1605726424.639464) can0 183281F5#0100000000000000
(1605726424.639938) can0 1811F580#07000E670E550EA7
(1605726424.640696) can0 1811F580#0A000E690E5A0E68
(1605726424.641496) can0 183281F5#0200000000000000
(1605726424.642092) can0 1811F580#0D000E700E860E74
(1605726424.642728) can0 1811F580#10000E6A0E750E69
(1605726424.643376) can0 184081F5#0100000000000000
(1605726424.643999) can0 1811F580#13000E540E9E0E58
(1605726424.644714) can0 1811F580#16000E750E700E86
(1605726424.645818) can0 1811F580#19000E840E770E5C
(1605726424.646708) can0 1811F580#1C000E7F0E850E52
(1605726424.647358) can0 1811F581#01000E620E750E6D
(1605726424.647899) can0 1811F580#1F000E870E640E44
(1605726424.648518) can0 1811F581#04000E5B0E540E50
(1605726424.649048) can0 1811F580#22000E480E940E6F
(1605726424.649648) can0 1811F581#07000E710E830E58
(1605726424.650230) can0 1811F580#25000E590E4E0E93
(1605726424.650664) can0 1811F581#0A000E7A0E420E4C
(1605726424.651333) can0 1811F580#28000E6A0E5D0E5A
(1605726424.651962) can0 1811F580#2B000E700E4F0E58
(1605726424.652358) can0 1811F581#0D000E380E320E65
(1605726424.652931) can0 1811F580#2E000E610E400E65
(1605726424.653495) can0 1811F581#13000E6B0E790E6A
(1605726424.654192) can0 1811F581#10000E9F0E3D0E4B
(1605726424.654664) can0 1811F581#16000E720E520E79
(1605726424.655252) can0 1812F580#0100424242404243
(1605726424.655744) can0 1811F581#19000E4D0E6C0E5F
(1605726424.656285) can0 1812F580#0700434242444342
(1605726424.656802) can0 1811F581#1C000E7B
(1605726424.657283) can0 1815F580#0001000000000000
(1605726424.657856) can0 1812F581#0100424343424343
(1605726424.658257) can0 1812F581#070042
(1605726424.658758) can0 1816F580#00129111000000
(1605726424.659441) can0 1816F580#00118111000000
(1605726424.659850) can0 1813F581#
(1605726424.660281) can0 1816F580#0013A111000000
(1605726424.660632) can0 1813F580#
(1605726424.660944) can0 1814F580#
(1605726424.661353) can0 1815F581#0001000000000000
(1605726424.661775) can0 1816F581#00118111000000
(1605726424.662391) can0 1816F581#0012910D000000
(1605726424.662658) can0 1833F580#
(1605726424.663054) can0 1833F580#
(1605726424.663436) can0 1816F581#00138000000000
(1605726424.664134) can0 1814F581#
(1605726424.665179) can0 1833F581#
(1605726424.666115) can0 1833F581#
(1605726424.667225) can0 1841F581#00000000
(1605726424.667850) can0 181082F5#FFFF0E663E9DFFFF
(1605726424.669396) can0 183282F5#0100000000000000
(1605726424.671383) can0 183282F5#0200000000000000
(1605726424.673389) can0 184082F5#0100000000000000
(1605726424.681387) can0 183BF4E8#0401000000000000
(1605726424.682142) can0 1841F580#00000000
(1605726424.683370) can0 183DF4E8#0112911100000043
(1605726424.685381) can0 183DF4E8#0111811100000043
(1605726424.687427) can0 183DF4E8#0113A11100000043
(1605726424.689375) can0 183BF4E8#0801000000000000
(1605726424.691368) can0 183DF4E8#0211811100000000
(1605726424.693362) can0 183DF4E8#0212910D00000000
(1605726424.693917) can0 1811F582#01000E770E520E73
(1605726424.694933) can0 1811F582#04000E770E870E6E
(1605726424.695477) can0 183DF4E8#0213800000000000
(1605726424.696030) can0 1811F582#07000E5D0E650E54
(1605726424.696954) can0 1811F582#0A000E5E0E670E59
(1605726424.697544) can0 181083F5#FFFF0E663E9DFFFF
(1605726424.698057) can0 1811F582#0D000E500E7A0E56
(1605726424.699065) can0 1811F582#10000E600E2D0E2C
(1605726424.699531) can0 183283F5#0100000000000000
(1605726424.700102) can0 1811F582#13000E6F0E530E74
(1605726424.700949) can0 1811F582#16000E6B0E570E50
(1605726424.701519) can0 183283F5#0200000000000000
(1605726424.702064) can0 1811F582#19000E3A0E510E6B
(1605726424.702788) can0 1811F582#1C000E50
(1605726424.703387) can0 184083F5#0100000000000000
(1605726424.703950) can0 1811F583#01000E730E780E62
(1605726424.704689) can0 1812F582#0100434342434543
(1605726424.705082) can0 1811F583#04000E600E620E75
(1605726424.705512) can0 1812F582#070042
(1605726424.705995) can0 1811F583#07000E650E520E85
(1605726424.706348) can0 1813F582#
(1605726424.707133) can0 1811F583#0A000E5B0E750E94
(1605726424.707466) can0 1815F582#0001000000000000
(1605726424.707938) can0 1811F583#0D000E7D0E470E94
(1605726424.708588) can0 1816F582#00118111000000
(1605726424.709051) can0 1811F583#10000E760E630E63
(1605726424.709597) can0 1816F582#0012910D000000
(1605726424.710116) can0 1811F583#13000E890E800E4E
(1605726424.710815) can0 1816F582#00138000000000
(1605726424.711171) can0 1811F583#16000E850E6B0E70
(1605726424.711795) can0 1814F582#
(1605726424.712155) can0 1811F583#19000E890E760E67
(1605726424.712560) can0 1833F582#
(1605726424.712905) can0 1811F583#1C000E6E0E8C0E57
(1605726424.713215) can0 1833F582#
(1605726424.713872) can0 1811F583#1F000E6C0E460E60
(1605726424.714951) can0 1811F583#22000E5A0E570E98
(1605726424.715889) can0 1811F583#25000E4E0E5B0E63
(1605726424.716847) can0 1811F583#28000E860E6C0E7C
(1605726424.717828) can0 1811F583#2B000E5A0E3F0E7B
(1605726424.718821) can0 1811F583#2E000E490E8E0E68
(1605726424.719815) can0 1812F583#0100424442414243
(1605726424.720841) can0 1812F583#0700424141424140
(1605726424.721607) can0 1813F583#
(1605726424.722916) can0 1815F583#0001000000000000
(1605726424.723824) can0 1816F583#00118111000000
(1605726424.724842) can0 1816F583#00129111000000
(1605726424.725855) can0 1816F583#0013A111000000
(1605726424.726556) can0 1814F583#
(1605726424.727595) can0 1833F583#
(1605726424.728566) can0 1833F583#
(1605726424.728892) can0 1841F582#00000000
(1605726424.737382) can0 183BF4E8#0C01000000000000
(1605726424.739361) can0 183DF4E8#0311811100000094
(1605726424.741356) can0 183DF4E8#0312910D00000063
(1605726424.743376) can0 183DF4E8#031380000000004E
(1605726424.745384) can0 183BF4E8#1001000000000000
(1605726424.747364) can0 183DF4E8#0411811100000000
(1605726424.748031) can0 1841F583#00000000
(1605726424.749363) can0 183DF4E8#0412911100000000
(1605726424.751361) can0 183DF4E8#0413A11100000000
(1605726424.771343) can0 1830CCE8#010139B2393339D2
(1605726424.773340) can0 1830CCE8#020439D439D039C3
(1605726424.775332) can0 1830CCE8#030739D639C2398F
(1605726424.777334) can0 1830CCE8#040A39A43976395E
(1605726424.779337) can0 1830CCE8#050D399F39983960
(1605726424.781356) can0 1830CCE8#0610396E396C39A7
(1605726424.783330) can0 1830CCE8#0713399339B339B7
(1605726424.785334) can0 1830CCE8#081639723980391B
(1605726424.787347) can0 1830CCE8#09193986394639AD
(1605726424.789324) can0 1830CCE8#0A1C398E39E939CE
(1605726424.791366) can0 1830CCE8#0B1F39CF39AE39D4
(1605726424.793315) can0 1830CCE8#0C22399539A93992
(1605726424.795345) can0 1830CCE8#0D25398139BA0000
(1605726424.797336) can0 1831CCE8#0101424242404243
(1605726424.799917) can0 1831CCE8#0207434242444342
(1605726424.801334) can0 1831CCE8#030D424343424343
(1605726424.803349) can0 1831CCE8#0413424343424345
(1605726424.805368) can0 1831CCE8#0519434242444241
(1605726424.807388) can0 1831CCE8#061F424342414142
(1605726424.809431) can0 1831CCE8#07254140FFFFFFFF
(1605726424.811443) can0 1834CCE8#0104040700484144
(1605726424.813392) can0 1834CCE8#023E9D3E9D3EAC50
(1605726424.815400) can0 1834CCE8#0315E3166600F163
(1605726424.818074) can0 1834CCE8#043EF83E62470564
(1605726424.819369) can0 1834CCE8#0500C71AA7260200
(1605726424.821382) can0 1834CCE8#0600FF000000FF00
(1605726424.822754) can0 1830E8F4#0800000000000000
(1605726424.823443) can0 1838CCE8#0000FF20FFFFFFFF
(1605726424.825423) can0 183DCCE8#0100000000000000
(1605726424.827424) can0 183DCCE8#02000000FFFFFFFF
(1605726424.829405) can0 1840CCE8#3EDAAF183E943EA8
(1605726424.831443) can0 1838F4E8#0000000000FFFFFF
(1605726424.922141) can0 1830E8F4#0800000000000000
(1605726424.925330) can0 1838F4E8#0000000000FFFFFF
(1605726425.117314) can0 181080F5#FFFF0E663E9DFFFF
(1605726425.119327) can0 183280F5#0100000000000000
(1605726425.121313) can0 183280F5#0200000000000000
(1605726425.122689) can0 1811F580#01000E390E7B0E8D
(1605726425.123311) can0 184080F5#0100000000000000
(1605726425.123877) can0 1811F580#04000E720E530E24
(1605726425.124694) can0 1811F580#07000E670E550EA7
(1605726425.125708) can0 1811F580#0A000E690E5A0E68
(1605726425.126736) can0 1811F580#0D000E700E860E73
(1605726425.127727) can0 1811F580#10000E6A0E750E69
(1605726425.128773) can0 1811F580#13000E540E9E0E58
(1605726425.129746) can0 1811F580#16000E750E700E86
(1605726425.130720) can0 1811F580#19000E840E770E5C
(1605726425.131794) can0 1811F580#1C000E7F0E850E52
(1605726425.132733) can0 1811F580#1F000E870E640E44
(1605726425.133695) can0 1811F580#22000E480E940E6F
(1605726425.134703) can0 1811F580#25000E5A0E4E0E93
(1605726425.135678) can0 1811F580#28000E6A0E5D0E5A
(1605726425.136689) can0 1811F580#2B000E700E4F0E58
(1605726425.137337) can0 181081F5#FFFF0E663E9DFFFF
(1605726425.137859) can0 1811F580#2E000E610E400E66
(1605726425.138703) can0 1812F580#0100424242404243
(1605726425.139343) can0 183281F5#0100000000000000
(1605726425.139865) can0 1812F580#0700434242444342
(1605726425.140394) can0 1813F580#
(1605726425.141369) can0 183281F5#0200000000000000
(1605726425.141951) can0 1815F580#0001000000000000
(1605726425.142649) can0 1816F580#00118111000000
(1605726425.143378) can0 184081F5#0100000000000000
(1605726425.143848) can0 1816F580#00129111000000
(1605726425.144480) can0 1811F581#01000E620E750E6D
(1605726425.144945) can0 1816F580#0013A111000000
(1605726425.145493) can0 1811F581#04000E5B0E540E50
(1605726425.145776) can0 1814F580#
(1605726425.146339) can0 1811F581#07000E710E830E58
(1605726425.146601) can0 1833F580#
(1605726425.147232) can0 183BF4E8#0401000000000000
(1605726425.147759) can0 1811F581#0A000E790E420E4C
(1605726425.148348) can0 183DF4E8#0111811100000000
(1605726425.148895) can0 1811F581#0D000E380E320E65
(1605726425.149511) can0 1811F581#10000E9F0E3D0E4B
(1605726425.150216) can0 183DF4E8#0112911100000000
(1605726425.150610) can0 1811F581#13000E6B0E790E6A
(1605726425.151441) can0 183DF4E8#0113A1110000006D
(1605726425.151894) can0 1811F581#16000E720E520E79
(1605726425.152404) can0 1811F581#19000E4D0E6C0E5F
(1605726425.153290) can0 1811F581#1C000E7B
(1605726425.154419) can0 1812F581#0100424343424343
(1605726425.155269) can0 1812F581#070042
(1605726425.156117) can0 1813F581#
(1605726425.157367) can0 1815F581#0001000000000000
(1605726425.158330) can0 1816F581#00118111000000
(1605726425.159341) can0 1816F581#0012910D000000
(1605726425.160310) can0 1816F581#00138000000000
(1605726425.161044) can0 1814F581#
(1605726425.161329) can0 1833F580#
(1605726425.167304) can0 181082F5#FFFF0E663E9DFFFF
(1605726425.167710) can0 1841F580#00000000
(1605726425.169391) can0 183282F5#0100000000000000
(1605726425.171326) can0 183282F5#0200000000000000
(1605726425.172916) can0 1811F582#01000E770E520E73
(1605726425.173492) can0 184082F5#0100000000000000
(1605726425.174023) can0 1811F582#04000E770E870E6E
(1605726425.174945) can0 1811F582#07000E5D0E650E54
(1605726425.175992) can0 1811F582#0A000E5E0E670E59
(1605726425.176277) can0 1833F581#
(1605726425.176902) can0 1811F582#0D000E500E7A0E56
(1605726425.177948) can0 1811F582#10000E600E2C0E2C
(1605726425.179033) can0 1811F582#13000E6F0E530E74
(1605726425.179958) can0 1811F582#16000E6B0E570E50
(1605726425.180908) can0 1811F582#19000E3A0E510E6B
(1605726425.181227) can0 1833F581#
(1605726425.181765) can0 1811F582#1C000E50
(1605726425.182938) can0 1812F582#0100434342434543
(1605726425.183457) can0 183BF4E8#0801000000000000
(1605726425.183848) can0 1812F582#070042
(1605726425.184635) can0 1813F582#
(1605726425.185308) can0 183DF4E8#0211811100000000
(1605726425.185929) can0 1815F582#0001000000000000
(1605726425.186913) can0 1816F582#00118111000000
(1605726425.187453) can0 183DF4E8#0212910D00000000
(1605726425.187968) can0 1816F582#0012910D000000
(1605726425.188395) can0 1841F581#00000000
(1605726425.189117) can0 1816F582#00138000000000
(1605726425.189538) can0 183DF4E8#0213800000000000
(1605726425.189801) can0 1814F582#
(1605726425.190731) can0 1833F582#
(1605726425.191846) can0 1833F582#
(1605726425.193314) can0 183BF4E8#0C01000000000000
(1605726425.195316) can0 183DF4E8#0311811100000000
(1605726425.197299) can0 183DF4E8#0312910D00000000
(1605726425.199339) can0 183DF4E8#0313800000000000
(1605726425.201300) can0 181083F5#FFFF0E663E9DFFFF
(1605726425.203715) can0 183283F5#0100000000000000
(1605726425.205225) can0 183283F5#0200000000000000
(1605726425.207228) can0 184083F5#0100000000000000
(1605726425.207700) can0 1841F582#00000000
(1605726425.227735) can0 1811F583#01000E730E780E62
(1605726425.228724) can0 1811F583#04000E600E620E75
(1605726425.229726) can0 1811F583#07000E650E520E85
(1605726425.230716) can0 1811F583#0A000E5B0E750E94
(1605726425.231726) can0 1811F583#0D000E7D0E480E94
(1605726425.232723) can0 1811F583#10000E760E630E63
(1605726425.233724) can0 1811F583#13000E890E800E4E
(1605726425.234714) can0 1811F583#16000E850E6B0E71
(1605726425.235723) can0 1811F583#19000E890E760E67
(1605726425.236723) can0 1811F583#1C000E6E0E8C0E57
(1605726425.237756) can0 1811F583#1F000E6C0E460E60
(1605726425.238716) can0 1811F583#22000E5A0E570E98
(1605726425.239729) can0 1811F583#25000E4E0E5B0E63
(1605726425.240734) can0 1811F583#28000E860E6C0E7C
(1605726425.241737) can0 1811F583#2B000E5A0E3F0E7B
(1605726425.242741) can0 1811F583#2E000E480E8E0E68
(1605726425.243717) can0 1812F583#0100424442414243
(1605726425.244730) can0 1812F583#0700424141424140
(1605726425.245468) can0 1813F583#
(1605726425.246753) can0 1815F583#0001000000000000
(1605726425.247693) can0 1816F583#00118111000000
(1605726425.248725) can0 1816F583#00129111000000
(1605726425.249308) can0 183BF4E8#1001000000000000
(1605726425.249820) can0 1816F583#0013A111000000
(1605726425.250454) can0 1814F583#
(1605726425.251441) can0 1833F583#
(1605726425.253219) can0 183DF4E8#0411811100000000
(1605726425.255230) can0 183DF4E8#0412911100000000
(1605726425.257210) can0 183DF4E8#0413A11100000000
(1605726425.265575) can0 1833F583#
(1605726425.271731) can0 1841F583#00000000
(1605726425.329314) can0 1830E8F4#0800000000000000
(1605726425.333369) can0 1838F4E8#0000000000FFFFFF
(1605726425.405313) can0 183ECCE8#4139E9391A444540
(1605726425.407315) can0 183FCCE8#0450002015E33E9D
(1605726425.409362) can0 1840CCE8#3EDAB0F83E943EA8
(1605726425.428035) can0 1830E8F4#0800000000000000
(1605726425.437339) can0 1838F4E8#0000000000FFFFFF
(1605726425.618078) can0 181080F5#FFFF0E663E9DFFFF
(1605726425.619330) can0 183280F5#0100000000000000
(1605726425.621313) can0 183280F5#0200000000000000
(1605726425.623323) can0 184080F5#0100000000000000
(1605726425.637300) can0 181081F5#FFFF0E663E9DFFFF
(1605726425.639315) can0 183281F5#0100000000000000
(1605726425.641310) can0 183281F5#0200000000000000
(1605726425.642789) can0 1811F580#01000E390E7B0E8D
(1605726425.643317) can0 184081F5#0100000000000000
(1605726425.643858) can0 1811F580#04000E720E530E24
(1605726425.644742) can0 1811F580#07000E670E550EA7
(1605726425.645731) can0 1811F580#0A000E690E5A0E68
(1605726425.646744) can0 1811F580#0D000E700E860E73
(1605726425.647783) can0 1811F580#10000E6A0E750E69
(1605726425.648772) can0 1811F580#13000E540E9E0E58
(1605726425.649788) can0 1811F580#16000E750E700E86
(1605726425.650789) can0 1811F580#19000E840E770E5C
(1605726425.651801) can0 1811F580#1C000E7F0E850E52
(1605726425.652797) can0 1811F580#1F000E870E640E44
(1605726425.653787) can0 1811F580#22000E480E940E6F
(1605726425.654794) can0 1811F580#25000E5A0E4E0E93
(1605726425.655736) can0 1811F580#28000E6A0E5D0E5A
(1605726425.656811) can0 1811F580#2B000E700E4F0E58
(1605726425.657812) can0 1811F580#2E000E610E400E65
(1605726425.658819) can0 1812F580#0100424242404243
(1605726425.659782) can0 1812F580#0700434242444342
(1605726425.660424) can0 1813F580#
(1605726425.661776) can0 1815F580#0001000000000000
(1605726425.662759) can0 1816F580#00118111000000
(1605726425.663739) can0 1816F580#00129111000000
(1605726425.664783) can0 1816F580#0013A111000000
(1605726425.665324) can0 183BF4E8#0401000000000000
(1605726425.665647) can0 1814F580#
(1605726425.666469) can0 1833F580#
(1605726425.667325) can0 183DF4E8#0111811100000000
(1605726425.669296) can0 181082F5#FFFF0E663E9DFFFF
(1605726425.671325) can0 183282F5#0100000000000000
(1605726425.673357) can0 183282F5#0200000000000000
(1605726425.675319) can0 184082F5#0100000000000000
(1605726425.677301) can0 183DF4E8#0112911100000000
(1605726425.679314) can0 183DF4E8#0113A11100000000
(1605726425.680528) can0 1833F580#
(1605726425.686616) can0 1841F580#00000000
(1605726425.695399) can0 1811F581#01000E620E750E6D
(1605726425.696414) can0 1811F581#04000E5B0E540E50
(1605726425.697323) can0 181083F5#FFFF0E663E9DFFFF
(1605726425.697831) can0 1811F581#07000E710E830E58
(1605726425.698382) can0 1811F581#0A000E7A0E420E4C
(1605726425.699333) can0 183283F5#0100000000000000
(1605726425.699893) can0 1811F581#0D000E380E320E65
(1605726425.700431) can0 1811F581#10000E9F0E3D0E4B
(1605726425.701346) can0 183283F5#0200000000000000
(1605726425.701996) can0 1811F581#13000E6B0E790E6A
(1605726425.702355) can0 1811F581#16000E720E520E79
(1605726425.703350) can0 184083F5#0100000000000000
(1605726425.703862) can0 1811F581#19000E4D0E6C0E5F
(1605726425.704301) can0 1811F581#1C000E7B
(1605726425.705405) can0 1812F581#0100424343424343
(1605726425.706210) can0 1812F581#070042
(1605726425.706952) can0 1811F583#01000E720E780E62
(1605726425.707291) can0 1813F581#
(1605726425.707831) can0 1811F583#04000E600E620E75
(1605726425.708463) can0 1815F581#0001000000000000
(1605726425.709064) can0 1811F583#07000E650E520E85
(1605726425.709506) can0 1816F581#00118111000000
(1605726425.710081) can0 1811F583#0A000E5B0E750E94
(1605726425.710592) can0 1816F581#0012910D000000
(1605726425.711131) can0 1811F583#0D000E7D0E470E94
(1605726425.711668) can0 1816F581#00138000000000
(1605726425.712231) can0 1811F583#10000E760E630E63
(1605726425.712528) can0 1814F581#
(1605726425.713142) can0 1811F583#13000E890E800E4E
(1605726425.713872) can0 1811F583#16000E850E6B0E71
(1605726425.714960) can0 1811F583#19000E890E760E66
(1605726425.715981) can0 1811F583#1C000E6F0E8C0E56
(1605726425.716896) can0 1811F583#1F000E6C0E460E61
(1605726425.717865) can0 1811F583#22000E5A0E570E98
(1605726425.718923) can0 1811F583#25000E4E0E5B0E63
(1605726425.719902) can0 1811F583#28000E860E6C0E7C
(1605726425.720899) can0 1811F583#2B000E5A0E3F0E7B
(1605726425.721477) can0 183BF4E8#0801000000000000
(1605726425.721978) can0 1811F583#2E000E490E8E0E68
(1605726425.722934) can0 1812F583#0100424442414243
(1605726425.723410) can0 183DF4E8#0211811100000085
(1605726425.723960) can0 1812F583#0700424141424140
(1605726425.724556) can0 1813F583#
(1605726425.725300) can0 183DF4E8#0212910D00000094
(1605726425.725904) can0 1815F583#0001000000000000
(1605726425.726501) can0 1811F582#01000E770E520E73
(1605726425.727050) can0 1811F582#04000E770E870E6E
(1605726425.727508) can0 1816F583#00118111000000
(1605726425.728081) can0 1811F582#07000E5D0E650E54
(1605726425.728590) can0 1816F583#00129111000000
(1605726425.729158) can0 1811F582#0A000E5E0E670E59
(1605726425.729736) can0 1816F583#0013A111000000
(1605726425.730234) can0 1811F582#0D000E500E7A0E56
(1605726425.730569) can0 1814F583#
(1605726425.731183) can0 1811F582#10000E600E2C0E2C
(1605726425.731524) can0 1833F583#
(1605726425.731959) can0 183DF4E8#0213800000000094
(1605726425.732515) can0 1811F582#13000E6F0E530E74
(1605726425.733045) can0 1811F582#16000E6A0E570E4F
(1605726425.733662) can0 183DF4E8#041181110000006E
(1605726425.734140) can0 1811F582#19000E3A0E510E6B
(1605726425.734777) can0 183BF4E8#1001000000000000
(1605726425.735183) can0 1811F582#1C000E51
(1605726425.735832) can0 183DF4E8#0412911100000054
(1605726425.736309) can0 1812F582#0100434342434543
(1605726425.736751) can0 1812F582#070042
(1605726425.737400) can0 183DF4E8#0413A11100000059
(1605726425.737722) can0 1813F582#
(1605726425.739029) can0 1815F582#0001000000000000
(1605726425.739979) can0 1816F582#00118111000000
(1605726425.740974) can0 1816F582#0012910D000000
(1605726425.741998) can0 1816F582#00138000000000
(1605726425.742674) can0 1814F582#
(1605726425.743683) can0 1833F582#
(1605726425.744675) can0 1833F582#
(1605726425.745854) can0 1841F582#00000000
(1605726425.747611) can0 1833F583#
(1605726425.749391) can0 183BF4E8#0C01000000000000
(1605726425.751301) can0 183DF4E8#0311811100000000
(1605726425.753302) can0 183DF4E8#0312910D00000000
(1605726425.753718) can0 1841F583#00000000
(1605726425.755345) can0 183DF4E8#0313800000000000
(1605726425.772104) can0 1833F581#
(1605726425.777101) can0 1833F581#
(1605726425.783250) can0 1841F581#00000000
(1605726425.830361) can0 1830E8F4#0800000000000000
(1605726425.833335) can0 1838F4E8#0000000000FFFFFF
(1605726425.893279) can0 1830CCE8#010139B3393339D2
(1605726425.895282) can0 1830CCE8#020439D339D039C3
(1605726425.897322) can0 1830CCE8#030739D639C2398F
(1605726425.899286) can0 1830CCE8#040A39A53976395E
(1605726425.901271) can0 1830CCE8#050D399F39983960
(1605726425.903262) can0 1830CCE8#0610396E396C39A7
(1605726425.905258) can0 1830CCE8#0713399339B339B7
(1605726425.907479) can0 1830CCE8#081639723980391A
(1605726425.909283) can0 1830CCE8#09193984394739AC
(1605726425.911267) can0 1830CCE8#0A1C398E39E939CE
(1605726425.913312) can0 1830CCE8#0B1F39CF39AF39D4
(1605726425.915312) can0 1830CCE8#0C22399439AA3992
(1605726425.917288) can0 1830CCE8#0D25398139BA0000
(1605726425.919272) can0 1831CCE8#0101424242404243
(1605726425.921270) can0 1831CCE8#0207434242444342
(1605726425.923277) can0 1831CCE8#030D424343424343
(1605726425.925258) can0 1831CCE8#0413424343424345
(1605726425.927276) can0 1831CCE8#0519434242444241
(1605726425.929266) can0 1831CCE8#061F424342414142
(1605726425.931296) can0 1831CCE8#07254140FFFFFFFF
(1605726425.933281) can0 1834CCE8#0104040700484144
(1605726425.934069) can0 1830E8F4#0800000000000000
(1605726425.935263) can0 1834CCE8#023E9D3E9D3EAC50
(1605726425.937267) can0 1834CCE8#0315E3166600F163
(1605726425.939279) can0 1834CCE8#043EF83E62470564
(1605726425.941269) can0 1834CCE8#0500C71AA7260200
(1605726425.943312) can0 1834CCE8#0600FF000000FF00
(1605726425.945303) can0 1838CCE8#0000FF20FFFFFFFF
(1605726425.947315) can0 183DCCE8#0100000000000000
(1605726425.949344) can0 183DCCE8#02000000FFFFFFFF
(1605726425.951253) can0 1840CCE8#3EDAB2883E943EA8
(1605726425.953342) can0 1838F4E8#0000000000FFFFFF
(1605726426.117276) can0 181080F5#FFFF0E663E9DFFFF
(1605726426.119268) can0 183280F5#0100000000000000
(1605726426.121271) can0 183280F5#0200000000000000
(1605726426.122756) can0 1811F580#01000E390E7B0E8D
(1605726426.123373) can0 184080F5#0100000000000000
(1605726426.123964) can0 1811F580#04000E720E530E24
(1605726426.124766) can0 1811F580#07000E670E550EA7
(1605726426.125828) can0 1811F580#0A000E690E5A0E68
(1605726426.126796) can0 1811F580#0D000E700E860E73
(1605726426.127743) can0 1811F580#10000E6A0E750E69
(1605726426.128786) can0 1811F580#13000E540E9E0E58
(1605726426.129729) can0 1811F580#16000E750E700E86
(1605726426.130816) can0 1811F580#19000E840E770E5C
(1605726426.131878) can0 1811F580#1C000E800E850E52
(1605726426.132753) can0 1811F580#1F000E870E640E44
(1605726426.133789) can0 1811F580#22000E480E940E6F
(1605726426.134741) can0 1811F580#25000E5A0E4E0E93
(1605726426.135743) can0 1811F580#28000E6A0E5D0E5A
(1605726426.136822) can0 1811F580#2B000E700E4F0E58
(1605726426.137315) can0 181081F5#FFFF0E663E9DFFFF
(1605726426.137894) can0 1811F580#2E000E610E400E66
(1605726426.138754) can0 1812F580#0100424242404243
(1605726426.139304) can0 183281F5#0100000000000000
(1605726426.139916) can0 1812F580#0700434242444342
(1605726426.140445) can0 1811F581#01000E620E750E6C
(1605726426.140773) can0 1813F580#
(1605726426.141319) can0 183281F5#0200000000000000
(1605726426.141970) can0 1811F581#04000E5A0E540E50
(1605726426.142445) can0 1811F581#07000E710E830E58
(1605726426.143036) can0 1815F580#0001000000000000
(1605726426.143562) can0 1811F581#0A000E7A0E410E4B
(1605726426.144110) can0 1816F580#00129111000000
(1605726426.144666) can0 1811F581#0D000E380E320E64
(1605726426.145230) can0 1816F580#0013A111000000
(1605726426.145784) can0 1811F581#10000E9F0E3E0E4B
(1605726426.146273) can0 1816F580#00118111000000
(1605726426.146875) can0 1811F581#13000E6B0E790E6A
(1605726426.147443) can0 1811F581#16000E720E520E79
(1605726426.147732) can0 1833F580#
(1605726426.148054) can0 1814F580#
(1605726426.148561) can0 1811F581#19000E4D0E6C0E5F
(1605726426.149150) can0 184081F5#0100000000000000
(1605726426.149481) can0 1811F581#1C000E7B
(1605726426.150165) can0 183BF4E8#0401000000000000
(1605726426.150664) can0 1812F581#0100424343424343
(1605726426.151276) can0 183DF4E8#011291110000004B
(1605726426.151565) can0 1812F581#070042
(1605726426.152104) can0 1813F581#
(1605726426.153279) can0 183DF4E8#0113A11100000064
(1605726426.153897) can0 1815F581#0001000000000000
(1605726426.154378) can0 1816F581#00118111000000
(1605726426.155378) can0 1816F581#0012910D000000
(1605726426.156352) can0 1816F581#00138000000000
(1605726426.157105) can0 1814F581#
(1605726426.158161) can0 1833F581#
(1605726426.161468) can0 1833F580#
(1605726426.165355) can0 183DF4E8#011181110000004B
(1605726426.166637) can0 1841F580#00000000
(1605726426.167391) can0 183BF4E8#0801000000000000
(1605726426.169376) can0 183DF4E8#0211811100000000
(1605726426.171279) can0 183DF4E8#0212910D00000000
(1605726426.173296) can0 183DF4E8#0213800000000000
(1605726426.175275) can0 181082F5#FFFF0E663E9DFFFF
(1605726426.177310) can0 183282F5#0100000000000000
(1605726426.178162) can0 1833F581#
(1605726426.179044) can0 1811F582#01000E770E520E73
(1605726426.179698) can0 183282F5#0200000000000000
(1605726426.180089) can0 1811F582#04000E760E870E6E
(1605726426.181044) can0 1811F582#07000E5D0E640E54
(1605726426.181557) can0 184082F5#0100000000000000
(1605726426.182150) can0 1811F582#0A000E5E0E670E58
(1605726426.182978) can0 1811F582#0D000E500E7A0E56
(1605726426.184050) can0 1811F582#10000E600E2C0E2D
(1605726426.184394) can0 1841F581#00000000
(1605726426.185095) can0 1811F582#13000E6F0E520E74
(1605726426.186000) can0 1811F582#16000E6A0E570E4F
(1605726426.187041) can0 1811F582#19000E3B0E510E6B
(1605726426.187885) can0 1811F582#1C000E50
(1605726426.188961) can0 1812F582#0100434342434543
(1605726426.189833) can0 1812F582#070042
(1605726426.190722) can0 1813F582#
(1605726426.192042) can0 1815F582#0001000000000000
(1605726426.193020) can0 1816F582#00118111000000
(1605726426.193974) can0 1816F582#0012910D000000
(1605726426.195095) can0 1816F582#00138000000000
(1605726426.195731) can0 1814F582#
(1605726426.196753) can0 1833F582#
(1605726426.197332) can0 181083F5#FFFF0E663E9DFFFF
(1605726426.199284) can0 183283F5#0100000000000000
(1605726426.201313) can0 183283F5#0200000000000000
(1605726426.203313) can0 184083F5#0100000000000000
(1605726426.205268) can0 183BF4E8#0C01000000000000
(1605726426.207259) can0 183DF4E8#0311811100000000
(1605726426.209316) can0 183DF4E8#0312910D00000000
(1605726426.211344) can0 183DF4E8#0313800000000000
(1605726426.215733) can0 1833F582#
(1605726426.221946) can0 1841F582#00000000
(1605726426.227014) can0 1811F583#01000E730E780E62
(1605726426.227945) can0 1811F583#04000E600E620E76
(1605726426.228919) can0 1811F583#07000E650E520E85
(1605726426.229933) can0 1811F583#0A000E5B0E750E94
(1605726426.230896) can0 1811F583#0D000E7D0E470E94
(1605726426.231991) can0 1811F583#10000E760E630E63
(1605726426.232915) can0 1811F583#13000E890E800E4D
(1605726426.233907) can0 1811F583#16000E850E6B0E71
(1605726426.234960) can0 1811F583#19000E890E760E67
(1605726426.235953) can0 1811F583#1C000E6F0E8B0E57
(1605726426.236961) can0 1811F583#1F000E6C0E460E61
(1605726426.237929) can0 1811F583#22000E5A0E570E98
(1605726426.238909) can0 1811F583#25000E4E0E5B0E63
(1605726426.239941) can0 1811F583#28000E860E6C0E7C
(1605726426.240957) can0 1811F583#2B000E5A0E3F0E7B
(1605726426.241999) can0 1811F583#2E000E490E8E0E69
(1605726426.242934) can0 1812F583#0100424442414243
(1605726426.243914) can0 1812F583#0700424141424240
(1605726426.244679) can0 1813F583#
(1605726426.245946) can0 1815F583#0001000000000000
(1605726426.246926) can0 1816F583#00118111000000
(1605726426.247926) can0 1816F583#00129111000000
(1605726426.249461) can0 1816F583#0013A111000000
(1605726426.249777) can0 1814F583#
(1605726426.250295) can0 183BF4E8#1001000000000000
(1605726426.250679) can0 1833F583#
(1605726426.251403) can0 183DF4E8#0411811100000000
(1605726426.253275) can0 183DF4E8#0412911100000000
(1605726426.255313) can0 183DF4E8#0413A11100000000
(1605726426.265616) can0 1833F583#
(1605726426.270772) can0 1841F583#00000000
(1605726426.342186) can0 1830E8F4#0800000000000000
(1605726426.345273) can0 1838F4E8#0000000000FFFFFF
(1605726426.372786) can0 1830E8F4#0800000000000000
(1605726426.407297) can0 1838F4E8#0000000000FFFFFF
(1605726426.439929) can0 1830E8F4#0800000000000000
(1605726426.445291) can0 1838F4E8#0000000000FFFFFF
(1605726426.505241) can0 183ECCE8#4139E9391A444540
(1605726426.507435) can0 183FCCE8#0450002015E33E9D
(1605726426.509227) can0 1840CCE8#3EDAB4683E943EA8
(1605726426.618036) can0 181080F5#FFFF0E663E9DFFFF
(1605726426.619302) can0 183280F5#0100000000000000
(1605726426.621254) can0 183280F5#0200000000000000
(1605726426.623299) can0 184080F5#0100000000000000
(1605726426.637240) can0 181081F5#FFFF0E663E9DFFFF
(1605726426.639251) can0 183281F5#0100000000000000
(1605726426.639797) can0 1811F580#01000E390E7B0E8D
(1605726426.640770) can0 1811F580#04000E720E530E24
(1605726426.641464) can0 183281F5#0200000000000000
(1605726426.641986) can0 1811F580#07000E670E550EA7
(1605726426.642886) can0 1811F580#0A000E690E5A0E68
(1605726426.643346) can0 184081F5#0100000000000000
(1605726426.643938) can0 1811F580#0D000E700E860E73
(1605726426.644813) can0 1811F580#10000E6A0E750E69
(1605726426.645877) can0 1811F580#13000E540E9F0E58
(1605726426.646847) can0 1811F580#16000E750E700E86
(1605726426.647824) can0 1811F580#19000E840E770E5C
(1605726426.648796) can0 1811F580#1C000E800E850E52
(1605726426.649776) can0 1811F580#1F000E870E640E44
(1605726426.650785) can0 1811F580#22000E480E940E6F
(1605726426.651932) can0 1811F580#25000E590E4E0E93
(1605726426.652802) can0 1811F580#28000E6A0E5D0E59
(1605726426.653817) can0 1811F580#2B000E700E500E58
(1605726426.654784) can0 1811F580#2E000E600E400E66
(1605726426.655802) can0 1812F580#0100424242404243
(1605726426.656761) can0 1812F580#0700434242444342
(1605726426.657428) can0 1811F581#01000E630E750E6C
(1605726426.657745) can0 1813F580#
(1605726426.658445) can0 1811F581#04000E5A0E540E50
(1605726426.659120) can0 1815F580#0001000000000000
(1605726426.659608) can0 1811F581#07000E710E830E58
(1605726426.660115) can0 1816F580#00118111000000
(1605726426.660694) can0 1811F581#0A000E7A0E410E4B
(1605726426.661223) can0 1816F580#00129111000000
(1605726426.661804) can0 1811F581#0D000E380E320E64
(1605726426.662312) can0 1816F580#0013A111000000
(1605726426.662880) can0 1811F581#10000E9F0E3E0E4B
(1605726426.663281) can0 1814F580#
(1605726426.663631) can0 1811F581#13000E6B0E790E6A
(1605726426.663955) can0 1833F580#
(1605726426.664586) can0 1811F581#16000E720E520E79
(1605726426.665280) can0 183BF4E8#0401000000000000
(1605726426.665813) can0 1811F581#19000E4D0E6C0E5F
(1605726426.666430) can0 1811F581#1C000E7B
(1605726426.667284) can0 183DF4E8#0111811100000058
(1605726426.667785) can0 1812F581#0100424343424343
(1605726426.668423) can0 1812F581#070042
(1605726426.669258) can0 183DF4E8#011291110000004B
(1605726426.669577) can0 1813F581#
(1605726426.670490) can0 1815F581#0001000000000000
(1605726426.671276) can0 181082F5#FFFF0E663E9DFFFF
(1605726426.671802) can0 1816F581#00118111000000
(1605726426.672395) can0 1816F581#0012910D000000
(1605726426.673330) can0 183282F5#0100000000000000
(1605726426.673817) can0 1816F581#00138000000000
(1605726426.674148) can0 1814F581#
(1605726426.675356) can0 183282F5#0200000000000000
(1605726426.675689) can0 1833F581#
(1605726426.676160) can0 1833F581#
(1605726426.677249) can0 184082F5#0100000000000000
(1605726426.678494) can0 1833F580#
(1605726426.679314) can0 183DF4E8#0113A11100000064
(1605726426.684655) can0 1841F580#00000000
(1605726426.685301) can0 183BF4E8#0801000000000000
(1605726426.687238) can0 183DF4E8#0211811100000000
(1605726426.689227) can0 183DF4E8#0212910D00000000
(1605726426.691290) can0 183DF4E8#0213800000000000
(1605726426.692277) can0 1841F581#00000000
(1605726426.695074) can0 1811F582#01000E770E520E73
(1605726426.696044) can0 1811F582#04000E760E870E6E
(1605726426.697012) can0 1811F582#07000E5C0E640E54
(1605726426.697582) can0 181083F5#FFFF0E663E9DFFFF
(1605726426.698159) can0 1811F582#0A000E5E0E670E58
(1605726426.699113) can0 1811F582#0D000E500E7A0E56
(1605726426.699587) can0 183283F5#0100000000000000
(1605726426.700163) can0 1811F582#10000E5F0E2C0E2D
(1605726426.701165) can0 1811F582#13000E6F0E530E74
(1605726426.701620) can0 183283F5#0200000000000000
(1605726426.702128) can0 1811F582#16000E6A0E570E4F
(1605726426.703007) can0 1811F582#19000E3B0E510E6B
(1605726426.703646) can0 184083F5#0100000000000000
(1605726426.704031) can0 1811F582#1C000E50
(1605726426.704992) can0 1812F582#0100434342434543
(1605726426.705848) can0 1812F582#070042
(1605726426.706910) can0 1811F583#01000E730E780E62
(1605726426.707278) can0 1813F582#
(1605726426.707954) can0 1811F583#04000E600E610E76
(1605726426.708487) can0 1815F582#0001000000000000
(1605726426.709033) can0 1811F583#07000E650E520E85
(1605726426.709576) can0 1816F582#00118111000000
(1605726426.710116) can0 1811F583#0A000E5B0E750E94
(1605726426.710672) can0 1816F582#0012910D000000
(1605726426.711271) can0 1811F583#0D000E7D0E480E94
(1605726426.711800) can0 1816F582#00138000000000
(1605726426.712343) can0 1811F583#10000E770E630E63
(1605726426.712656) can0 1814F582#
(1605726426.713180) can0 1811F583#13000E890E800E4D
(1605726426.713560) can0 1833F582#
(1605726426.714017) can0 1811F583#16000E850E6B0E71
(1605726426.714733) can0 183BF4E8#0C01000000000000
(1605726426.715161) can0 1811F583#19000E890E760E67
(1605726426.715696) can0 183DF4E8#0311811100000085
(1605726426.716249) can0 1811F583#1C000E6F0E8B0E57
(1605726426.716993) can0 1811F583#1F000E6C0E460E61
(1605726426.717522) can0 183DF4E8#0312910D00000094
(1605726426.718711) can0 1811F583#22000E5A0E570E98
(1605726426.719045) can0 1811F583#25000E4E0E5B0E63
(1605726426.719480) can0 183DF4E8#0313800000000094
(1605726426.720092) can0 1811F583#28000E860E6C0E7C
(1605726426.720922) can0 1811F583#2B000E5A0E400E7B
(1605726426.722018) can0 1811F583#2E000E490E8E0E69
(1605726426.722948) can0 1812F583#0100424442414243
(1605726426.723902) can0 1812F583#0700424141424240
(1605726426.724691) can0 1813F583#
(1605726426.725943) can0 1815F583#0001000000000000
(1605726426.726884) can0 1816F583#00118111000000
(1605726426.727884) can0 1816F583#00129111000000
(1605726426.728882) can0 1816F583#0013A111000000
(1605726426.729678) can0 1814F583#
(1605726426.730642) can0 1833F583#
(1605726426.732794) can0 1833F582#
(1605726426.738910) can0 1841F582#00000000
(1605726426.744649) can0 1833F583#
(1605726426.750810) can0 1841F583#00000000
(1605726426.753261) can0 183BF4E8#1001000000000000
(1605726426.755263) can0 183DF4E8#0411811100000000
(1605726426.757349) can0 183DF4E8#0412911100000000
(1605726426.759245) can0 183DF4E8#0413A11100000000
(1605726426.848399) can0 1830E8F4#0800000000000000
(1605726426.853275) can0 1838F4E8#0000000000FFFFFF
(1605726426.946215) can0 1830E8F4#0800000000000000
(1605726426.977245) can0 1838F4E8#0000000000FFFFFF
(1605726427.017890) can0 1830CCE8#010139B3393339D2
(1605726427.019217) can0 1830CCE8#020439D339D139C3
(1605726427.021200) can0 1830CCE8#030739D739C2398F
(1605726427.023200) can0 1830CCE8#040A39A43976395E
(1605726427.025213) can0 1830CCE8#050D399E3998395E
(1605726427.027216) can0 1830CCE8#0610396D396D39A7
(1605726427.029209) can0 1830CCE8#0713399339B239B5
(1605726427.031203) can0 1830CCE8#08163971397F391B
(1605726427.033192) can0 1830CCE8#09193984394739AD
(1605726427.035188) can0 1830CCE8#0A1C398E39E939D0
(1605726427.037196) can0 1830CCE8#0B1F39CF39AE39D5
(1605726427.039192) can0 1830CCE8#0C22399439AA3992
(1605726427.041526) can0 1830CCE8#0D25398239BB0000
(1605726427.043216) can0 1831CCE8#0101424242404243
(1605726427.045194) can0 1831CCE8#0207434242444342
(1605726427.047210) can0 1831CCE8#030D424343424343
(1605726427.049188) can0 1831CCE8#0413424343424345
(1605726427.051253) can0 1831CCE8#0519434242444241
(1605726427.053215) can0 1831CCE8#061F424342414142
(1605726427.055233) can0 1831CCE8#07254240FFFFFFFF
(1605726427.057215) can0 1834CCE8#0104040700484144
(1605726427.059224) can0 1834CCE8#023E9D3E9D3EAC50
(1605726427.061201) can0 1834CCE8#0315E3166600F163
(1605726427.063224) can0 1834CCE8#043EF83E62470564
(1605726427.065237) can0 1834CCE8#0500C71AA7260200
(1605726427.067226) can0 1834CCE8#0600FF000000FF00
(1605726427.069202) can0 1838CCE8#0000FF20FFFFFFFF
(1605726427.071291) can0 183DCCE8#0100000000000000
(1605726427.073225) can0 183DCCE8#02000000FFFFFFFF
(1605726427.075221) can0 1840CCE8#3EDAB5F83E943EA8
(1605726427.117219) can0 181080F5#FFFF0E663E9DFFFF
(1605726427.119236) can0 183280F5#0100000000000000
(1605726427.121220) can0 183280F5#0200000000000000
(1605726427.122817) can0 1811F580#01000E390E7B0E8D
(1605726427.123366) can0 184080F5#0100000000000000
(1605726427.123978) can0 1811F580#04000E720E530E24
(1605726427.124872) can0 1811F580#07000E680E550EA7
(1605726427.125792) can0 1811F580#0A000E690E5A0E68
(1605726427.126809) can0 1811F580#0D000E700E860E74
(1605726427.127873) can0 1811F580#10000E6A0E750E69
(1605726427.128823) can0 1811F580#13000E540E9F0E58
(1605726427.129878) can0 1811F580#16000E750E700E86
(1605726427.130823) can0 1811F580#19000E840E770E5C
(1605726427.131905) can0 1811F580#1C000E800E850E52
(1605726427.132841) can0 1811F580#1F000E870E640E44
(1605726427.133825) can0 1811F580#22000E480E940E6F
(1605726427.134809) can0 1811F580#25000E590E4E0E93
(1605726427.135830) can0 1811F580#28000E6A0E5C0E59
(1605726427.136880) can0 1811F580#2B000E700E500E58
(1605726427.137371) can0 181081F5#FFFF0E663E9DFFFF
(1605726427.137997) can0 1811F580#2E000E600E400E66
(1605726427.138886) can0 1812F580#0100424242404243
(1605726427.139390) can0 183281F5#0100000000000000
(1605726427.140041) can0 1812F580#0700434242444342
(1605726427.140504) can0 1813F580#
(1605726427.141262) can0 183281F5#0200000000000000
(1605726427.141936) can0 1815F580#0001000000000000
(1605726427.142413) can0 1811F581#01000E620E750E6D
(1605726427.143028) can0 1816F580#00118111000000
(1605726427.143503) can0 1811F581#04000E5B0E540E50
(1605726427.144109) can0 1816F580#00129111000000
(1605726427.144680) can0 1811F581#07000E710E830E58
(1605726427.145270) can0 1816F580#0013A111000000
(1605726427.145734) can0 1811F581#0A000E7A0E420E4C
(1605726427.146081) can0 1814F580#
(1605726427.146561) can0 1811F581#0D000E380E320E65
(1605726427.146897) can0 1833F580#
(1605726427.147495) can0 184081F5#0100000000000000
(1605726427.147974) can0 1811F581#10000E9F0E3D0E4B
(1605726427.148589) can0 1811F581#13000E6B0E790E6A
(1605726427.149478) can0 1811F581#16000E720E520E79
(1605726427.151750) can0 1811F581#19000E4D0E6C0E5F
(1605726427.152010) can0 1811F581#1C000E7B
(1605726427.152385) can0 1812F581#0100424343424343
(1605726427.153340) can0 1812F581#070042
(1605726427.154218) can0 1813F581#
(1605726427.155532) can0 1815F581#0001000000000000
(1605726427.156425) can0 1816F581#00118111000000
(1605726427.157411) can0 1816F581#0012910D000000
(1605726427.158418) can0 1816F581#00138000000000
(1605726427.159199) can0 1814F581#
(1605726427.160153) can0 1833F581#
(1605726427.160477) can0 1833F580#
(1605726427.166702) can0 1841F580#00000000
(1605726427.167219) can0 181082F5#FFFF0E663E9DFFFF
(1605726427.169240) can0 183282F5#0100000000000000
(1605726427.171241) can0 183282F5#0200000000000000
(1605726427.172250) can0 1833F581#
(1605726427.173221) can0 184082F5#0100000000000000
(1605726427.175040) can0 1811F582#01000E770E520E73
(1605726427.175714) can0 183BF4E8#0401000000000000
(1605726427.176161) can0 1811F582#04000E770E870E6E
(1605726427.177103) can0 1811F582#07000E5D0E640E54
(1605726427.177604) can0 183DF4E8#011181110000006D
(1605726427.178221) can0 1811F582#0A000E5E0E670E58
(1605726427.178649) can0 1841F581#00000000
(1605726427.179188) can0 1811F582#0D000E500E7A0E56
(1605726427.179783) can0 183DF4E8#0112911100000050
(1605726427.180290) can0 1811F582#10000E600E2C0E2D
(1605726427.181069) can0 1811F582#13000E6F0E530E74
(1605726427.181608) can0 183DF4E8#0113A11100000058
(1605726427.182220) can0 1811F582#16000E6A0E570E4F
(1605726427.183055) can0 1811F582#19000E3B0E510E6C
(1605726427.183627) can0 183BF4E8#0801000000000000
(1605726427.184006) can0 1811F582#1C000E50
(1605726427.185134) can0 1812F582#0100434342434543
(1605726427.185660) can0 183DF4E8#0211811100000000
(1605726427.185955) can0 1812F582#070042
(1605726427.186773) can0 1813F582#
(1605726427.187410) can0 183DF4E8#0212910D00000000
(1605726427.188112) can0 1815F582#0001000000000000
(1605726427.189019) can0 1816F582#00118111000000
(1605726427.189634) can0 183DF4E8#0213800000000000
(1605726427.190154) can0 1816F582#0012910D000000
(1605726427.191094) can0 1816F582#00138000000000
(1605726427.191943) can0 1814F582#
(1605726427.192785) can0 1833F582#
(1605726427.197229) can0 181083F5#FFFF0E663E9DFFFF
(1605726427.199261) can0 183283F5#0100000000000000
(1605726427.201224) can0 183283F5#0200000000000000
(1605726427.203396) can0 184083F5#0100000000000000
(1605726427.212773) can0 1833F582#
(1605726427.217932) can0 1841F582#00000000
(1605726427.226949) can0 1811F583#01000E730E780E62
(1605726427.227932) can0 1811F583#04000E600E610E76
(1605726427.228936) can0 1811F583#07000E650E520E85
(1605726427.229929) can0 1811F583#0A000E5B0E750E94
(1605726427.230934) can0 1811F583#0D000E7D0E480E94
(1605726427.231987) can0 1811F583#10000E770E630E63
(1605726427.232953) can0 1811F583#13000E890E800E4D
(1605726427.233970) can0 1811F583#16000E850E6B0E71
(1605726427.234944) can0 1811F583#19000E890E760E67
(1605726427.235919) can0 1811F583#1C000E6F0E8B0E57
(1605726427.236943) can0 1811F583#1F000E6C0E460E60
(1605726427.237920) can0 1811F583#22000E5A0E570E98
(1605726427.238986) can0 1811F583#25000E4E0E5B0E63
(1605726427.239492) can0 183BF4E8#0C01000000000000
(1605726427.240103) can0 1811F583#28000E860E6C0E7C
(1605726427.241041) can0 1811F583#2B000E5A0E400E7B
(1605726427.241529) can0 183DF4E8#0311811100000000
(1605726427.242089) can0 1811F583#2E000E490E8E0E69
(1605726427.242951) can0 1812F583#0100424442414243
(1605726427.243489) can0 183DF4E8#0312910D00000000
(1605726427.244047) can0 1812F583#0700424141424240
(1605726427.244663) can0 1813F583#
(1605726427.245250) can0 183DF4E8#0313800000000000
(1605726427.245949) can0 1815F583#0001000000000000
(1605726427.246960) can0 1816F583#00118111000000
(1605726427.247908) can0 1816F583#00129111000000
(1605726427.248903) can0 1816F583#0013A111000000
(1605726427.249698) can0 1814F583#
(1605726427.250710) can0 1833F583#
(1605726427.259244) can0 183BF4E8#1001000000000000
(1605726427.261197) can0 183DF4E8#0411811100000000
(1605726427.263215) can0 183DF4E8#0412911100000000
(1605726427.264759) can0 1833F583#
(1605726427.265215) can0 183DF4E8#0413A11100000000
(1605726427.270855) can0 1841F583#00000000
(1605726427.354871) can0 1830E8F4#0800000000000000
(1605726427.377233) can0 1838F4E8#0000000000FFFFFF
(1605726427.452068) can0 1830E8F4#0800000000000000
(1605726427.481203) can0 1838F4E8#0000000000FFFFFF
(1605726427.617952) can0 181080F5#FFFF0E663E9DFFFF
(1605726427.619210) can0 183280F5#0100000000000000
(1605726427.621177) can0 183280F5#0200000000000000
(1605726427.623191) can0 184080F5#0100000000000000
(1605726427.627171) can0 183ECCE8#4139E9391B444540
(1605726427.629172) can0 183FCCE8#0450002015E33E9D
(1605726427.631153) can0 1840CCE8#3EDAB7D83E943EA8
(1605726427.637173) can0 181081F5#FFFF0E663E9DFFFF
(1605726427.639187) can0 183281F5#0100000000000000
(1605726427.640003) can0 1811F580#01000E380E7B0E8D
(1605726427.640864) can0 1811F580#04000E720E530E24
(1605726427.641403) can0 183281F5#0200000000000000
(1605726427.642013) can0 1811F580#07000E670E550EA7
(1605726427.642948) can0 1811F580#0A000E690E5A0E68
(1605726427.643397) can0 184081F5#0100000000000000
(1605726427.644104) can0 1811F580#0D000E700E860E74
(1605726427.644846) can0 1811F580#10000E6A0E750E69
(1605726427.645898) can0 1811F580#13000E540E9F0E58
(1605726427.646855) can0 1811F580#16000E750E700E86
(1605726427.647828) can0 1811F580#19000E840E770E5C
(1605726427.648910) can0 1811F580#1C000E800E850E52
(1605726427.649434) can0 1811F581#01000E620E750E6D
(1605726427.650001) can0 1811F580#1F000E870E640E44
(1605726427.650612) can0 1811F581#04000E5B0E540E50
(1605726427.651207) can0 1811F580#22000E480E940E6E
(1605726427.651862) can0 1811F581#07000E710E830E58
(1605726427.652198) can0 1811F580#25000E590E4E0E93
(1605726427.652858) can0 1811F581#0A000E7A0E420E4C
(1605726427.653428) can0 1811F580#28000E6A0E5D0E59
(1605726427.653941) can0 1811F580#2B000E700E500E58
(1605726427.654499) can0 1811F581#0D000E380E320E65
(1605726427.655040) can0 1811F580#2E000E600E400E65
(1605726427.655652) can0 1811F581#13000E6B0E790E6A
(1605726427.656155) can0 1811F581#10000E9F0E3D0E4B
(1605726427.656762) can0 1811F581#16000E720E520E79
(1605726427.657266) can0 1812F580#0100424242404243
(1605726427.657860) can0 1811F581#19000E4D0E6C0E5F
(1605726427.658401) can0 1812F580#0700434242444342
(1605726427.658903) can0 1811F581#1C000E7B
(1605726427.659431) can0 1815F580#0001000000000000
(1605726427.659975) can0 1812F581#0100424343424343
(1605726427.660314) can0 1812F581#070042
(1605726427.660908) can0 1816F580#00129111000000
(1605726427.661443) can0 1816F580#00118111000000
(1605726427.661866) can0 1813F581#
(1605726427.662291) can0 1816F580#0013A111000000
(1605726427.662643) can0 1813F580#
(1605726427.662993) can0 1814F580#
(1605726427.663380) can0 1815F581#0001000000000000
(1605726427.663888) can0 1816F581#00118111000000
(1605726427.664426) can0 1816F581#0012910D000000
(1605726427.664773) can0 1833F580#
(1605726427.665479) can0 1816F581#00138000000000
(1605726427.666223) can0 1814F581#
(1605726427.667182) can0 181082F5#FFFF0E663E9DFFFF
(1605726427.667494) can0 1833F581#
(1605726427.668203) can0 1833F581#
(1605726427.669232) can0 183282F5#0100000000000000
(1605726427.669572) can0 1841F581#00000000
(1605726427.671267) can0 183282F5#0200000000000000
(1605726427.673254) can0 184082F5#0100000000000000
(1605726427.675218) can0 183BF4E8#0401000000000000
(1605726427.677175) can0 183DF4E8#0112911100000043
(1605726427.678564) can0 1833F580#
(1605726427.679188) can0 183DF4E8#0111811100000043
(1605726427.681228) can0 183DF4E8#0113A11100000043
(1605726427.683212) can0 183BF4E8#0801000000000000
(1605726427.683692) can0 1841F580#00000000
(1605726427.685234) can0 183DF4E8#0211811100000000
(1605726427.687171) can0 183DF4E8#0212910D00000000
(1605726427.689192) can0 183DF4E8#0213800000000000
(1605726427.695079) can0 1811F582#01000E770E520E73
(1605726427.696063) can0 1811F582#04000E770E870E6E
(1605726427.697047) can0 1811F582#07000E5D0E650E54
(1605726427.697608) can0 181083F5#FFFF0E663E9DFFFF
(1605726427.698193) can0 1811F582#0A000E5E0E670E59
(1605726427.699167) can0 1811F582#0D000E500E790E56
(1605726427.699631) can0 183283F5#0100000000000000
(1605726427.700263) can0 1811F582#10000E600E2C0E2D
(1605726427.701101) can0 1811F582#13000E6F0E530E74
(1605726427.701608) can0 183283F5#0200000000000000
(1605726427.702241) can0 1811F582#16000E6A0E580E4F
(1605726427.703070) can0 1811F582#19000E3B0E510E6B
(1605726427.703651) can0 184083F5#0100000000000000
(1605726427.704104) can0 1811F582#1C000E51
(1605726427.705102) can0 1812F582#0100434342434543
(1605726427.705962) can0 1811F583#01000E730E780E62
(1605726427.706367) can0 1812F582#070042
(1605726427.706956) can0 1811F583#04000E600E620E76
(1605726427.707321) can0 1813F582#
(1605726427.708029) can0 1811F583#07000E650E520E85
(1605726427.708516) can0 1815F582#0001000000000000
(1605726427.709165) can0 1811F583#0A000E5B0E750E94
(1605726427.709606) can0 1816F582#00118111000000
(1605726427.710173) can0 1811F583#0D000E7D0E470E94
(1605726427.710771) can0 1816F582#0012910D000000
(1605726427.711243) can0 1811F583#10000E770E630E63
(1605726427.711789) can0 1816F582#00138000000000
(1605726427.712385) can0 1811F583#13000E890E800E4D
(1605726427.712703) can0 1814F582#
(1605726427.713197) can0 1811F583#16000E850E6B0E71
(1605726427.713496) can0 1833F582#
(1605726427.714017) can0 1811F583#19000E890E760E67
(1605726427.714983) can0 1811F583#1C000E6F0E8B0E57
(1605726427.715956) can0 1811F583#1F000E6C0E460E60
(1605726427.716993) can0 1811F583#22000E5A0E570E98
(1605726427.717953) can0 1811F583#25000E4E0E5B0E64
(1605726427.719042) can0 1811F583#28000E860E6C0E7C
(1605726427.719964) can0 1811F583#2B000E5A0E400E7B
(1605726427.721096) can0 1811F583#2E000E490E8E0E69
(1605726427.722040) can0 1812F583#0100424442414243
(1605726427.722999) can0 1812F583#0700424141424240
(1605726427.723743) can0 1813F583#
(1605726427.724985) can0 1815F583#0001000000000000
(1605726427.725303) can0 1833F582#
(1605726427.725922) can0 1816F583#00118111000000
(1605726427.727007) can0 1816F583#00129111000000
(1605726427.727933) can0 1816F583#0013A111000000
(1605726427.728691) can0 1814F583#
(1605726427.729735) can0 1833F583#
(1605726427.730994) can0 1841F582#00000000
(1605726427.731664) can0 183BF4E8#0C01000000000000
(1605726427.733151) can0 183DF4E8#0311811100000094
(1605726427.735159) can0 183DF4E8#0312910D00000094
(1605726427.737171) can0 183DF4E8#0313800000000063
(1605726427.739208) can0 183BF4E8#1001000000000000
(1605726427.741166) can0 183DF4E8#0411811100000000
(1605726427.743161) can0 183DF4E8#0412911100000000
(1605726427.744700) can0 1833F583#
(1605726427.745293) can0 183DF4E8#0413A11100000000
(1605726427.750850) can0 1841F583#00000000
(1605726427.862351) can0 1830E8F4#0800000000000000
(1605726427.871184) can0 1838F4E8#0000000000FFFFFF
(1605726427.957913) can0 1830E8F4#0800000000000000
(1605726427.961150) can0 1838F4E8#0000000000FFFFFF
(1605726428.117135) can0 181080F5#FFFF0E663E9DFFFF
(1605726428.119155) can0 183280F5#0100000000000000
(1605726428.121347) can0 183280F5#0200000000000000
(1605726428.121878) can0 1811F580#01000E380E7B0E8D
(1605726428.122872) can0 1811F580#04000E720E530E24
(1605726428.123408) can0 184080F5#0100000000000000
(1605726428.124070) can0 1811F580#07000E670E550EA7
(1605726428.124939) can0 1811F580#0A000E690E5B0E68
(1605726428.125834) can0 1811F580#0D000E6F0E860E74
(1605726428.126834) can0 1811F580#10000E6A0E750E69
(1605726428.127943) can0 1811F580#13000E540E9F0E58
(1605726428.128825) can0 1811F580#16000E750E700E86
(1605726428.129855) can0 1811F580#19000E840E770E5C
(1605726428.130879) can0 1811F580#1C000E800E850E52
(1605726428.131922) can0 1811F580#1F000E870E640E44
(1605726428.132856) can0 1811F580#22000E480E940E6F
(1605726428.133878) can0 1811F580#25000E590E4E0E93
(1605726428.134872) can0 1811F580#28000E6B0E5D0E59
(1605726428.135883) can0 1811F580#2B000E700E500E58
(1605726428.136902) can0 1811F580#2E000E600E400E66
(1605726428.137403) can0 181081F5#FFFF0E663E9DFFFF
(1605726428.137977) can0 1812F580#0100424242404243
(1605726428.138822) can0 1812F580#0700434242444342
(1605726428.139475) can0 183281F5#0100000000000000
(1605726428.139971) can0 1811F581#01000E620E750E6D
(1605726428.140538) can0 1811F581#04000E5B0E540E50
(1605726428.140831) can0 1813F580#
(1605726428.141406) can0 1815F580#0001000000000000
(1605726428.142108) can0 1811F581#07000E710E830E58
(1605726428.142520) can0 1811F581#0A000E7A0E420E4C
(1605726428.143104) can0 1816F580#00118111000000
(1605726428.143632) can0 1811F581#0D000E380E320E65
(1605726428.144122) can0 1816F580#0013A111000000
(1605726428.144700) can0 1811F581#10000E9F0E3E0E4B
(1605726428.145068) can0 1814F580#
(1605726428.145699) can0 1811F581#13000E6B0E790E6A
(1605726428.146182) can0 183281F5#0200000000000000
(1605726428.146801) can0 1811F581#16000E720E520E79
(1605726428.147269) can0 1830CCE8#010139B2393339D2
(1605726428.147890) can0 1811F581#19000E4D0E6C0E5F
(1605726428.148221) can0 1833F580#
(1605726428.148615) can0 1811F581#1C000E7B
(1605726428.149049) can0 1816F580#00129111000000
(1605726428.149699) can0 1812F581#0100424343424343
(1605726428.150168) can0 1830CCE8#020439D439D139C3
(1605726428.150471) can0 1812F581#070042
(1605726428.151207) can0 184081F5#0100000000000000
(1605726428.151453) can0 1813F581#
(1605726428.152067) can0 1830CCE8#030739D739C2398E
(1605726428.152556) can0 1815F581#0001000000000000
(1605726428.153202) can0 1830CCE8#040A39A43976395D
(1605726428.153673) can0 1816F581#00118111000000
(1605726428.154547) can0 1816F581#0012910D000000
(1605726428.155343) can0 1830CCE8#050D399F39983960
(1605726428.155601) can0 1816F581#00138000000000
(1605726428.156259) can0 1814F581#
(1605726428.157318) can0 1830CCE8#0610396E396C39A7
(1605726428.157629) can0 1833F581#
(1605726428.159117) can0 1830CCE8#0713399339B339B7
(1605726428.160561) can0 1833F580#
(1605726428.161186) can0 1830CCE8#08163972397F391B
(1605726428.163167) can0 1830CCE8#09193985394839AD
(1605726428.165107) can0 1830CCE8#0A1C398F39E939CF
(1605726428.165754) can0 1841F580#00000000
(1605726428.167146) can0 1830CCE8#0B1F39CF39AE39D5
(1605726428.169131) can0 1830CCE8#0C22399439A93993
(1605726428.171196) can0 1830CCE8#0D25398239BB0000
(1605726428.173167) can0 1831CCE8#0101424242404243
(1605726428.175111) can0 1831CCE8#0207434242444342
(1605726428.177135) can0 1831CCE8#030D424343424343
(1605726428.177471) can0 1833F581#
(1605726428.179170) can0 1831CCE8#0413424343424345
(1605726428.181120) can0 1831CCE8#0519434242444241
(1605726428.184248) can0 1831CCE8#061F424342414142
(1605726428.184410) can0 1841F581#00000000
(1605726428.185022) can0 1831CCE8#07254240FFFFFFFF
(1605726428.187029) can0 1834CCE8#0104040700484144
(1605726428.189027) can0 1834CCE8#023E9D3E9D3EAC50
(1605726428.191005) can0 1834CCE8#0315E3166600F163
(1605726428.193009) can0 1834CCE8#043EF83E62470564
(1605726428.195016) can0 1834CCE8#0500C71AA7260200
(1605726428.197139) can0 1834CCE8#0600FF000000FF00
(1605726428.199133) can0 1838CCE8#0000FF20FFFFFFFF
(1605726428.201136) can0 183DCCE8#0100000000000000
(1605726428.203189) can0 183DCCE8#02000000FFFFFFFF
(1605726428.205134) can0 1840CCE8#3EDAB9683E943EA8
(1605726428.207140) can0 183BF4E8#0401000000000000
(1605726428.209126) can0 183DF4E8#011181110000004C
(1605726428.211190) can0 183DF4E8#0113A11100000065
(1605726428.213131) can0 183DF4E8#011291110000005F
(1605726428.215141) can0 183BF4E8#0801000000000000
(1605726428.217829) can0 183DF4E8#0211811100000000
(1605726428.219149) can0 183DF4E8#0212910D00000000
(1605726428.221176) can0 183DF4E8#0213800000000000
(1605726428.223178) can0 181082F5#FFFF0E663E9DFFFF
(1605726428.225150) can0 183282F5#0100000000000000
(1605726428.226100) can0 1811F582#01000E770E520E73
(1605726428.227201) can0 1811F582#04000E770E870E6E
(1605726428.227654) can0 183282F5#0200000000000000
(1605726428.228235) can0 1811F582#07000E5D0E650E54
(1605726428.229211) can0 1811F582#0A000E5E0E670E59
(1605726428.229678) can0 184082F5#0100000000000000
(1605726428.230220) can0 1811F582#0D000E500E790E56
(1605726428.231172) can0 1811F582#10000E600E2C0E2C
(1605726428.231783) can0 181083F5#FFFF0E663E9DFFFF
(1605726428.232230) can0 1811F582#13000E700E530E74
(1605726428.233119) can0 1811F582#16000E6A0E580E4F
(1605726428.233665) can0 183283F5#0100000000000000
(1605726428.234236) can0 1811F582#19000E3B0E510E6B
(1605726428.235031) can0 1811F582#1C000E51
(1605726428.235526) can0 183283F5#0200000000000000
(1605726428.236112) can0 1812F582#0100434342434543
(1605726428.236937) can0 1812F582#070042
(1605726428.237519) can0 184083F5#0100000000000000
(1605726428.238070) can0 1813F582#
(1605726428.239188) can0 1815F582#0001000000000000
(1605726428.240088) can0 1816F582#00118111000000
(1605726428.241056) can0 1816F582#0012910D000000
(1605726428.242128) can0 1816F582#00138000000000
(1605726428.242929) can0 1814F582#
(1605726428.251171) can0 183BF4E8#0C01000000000000
(1605726428.253142) can0 183DF4E8#0311811100000000
(1605726428.255151) can0 183DF4E8#0312910D00000000
(1605726428.257142) can0 183DF4E8#0313800000000000
(1605726428.257824) can0 1833F582#
(1605726428.262818) can0 1833F582#
(1605726428.263996) can0 1811F583#01000E730E780E62
(1605726428.264983) can0 1811F583#04000E600E610E76
(1605726428.266022) can0 1811F583#07000E650E520E85
(1605726428.267551) can0 1811F583#0A000E5B0E750E94
(1605726428.268120) can0 1811F583#0D000E7D0E470E94
(1605726428.269001) can0 1811F583#10000E770E630E63
(1605726428.270080) can0 1811F583#13000E890E800E4D
(1605726428.271094) can0 1811F583#16000E850E6B0E70
(1605726428.272025) can0 1811F583#19000E890E760E67
(1605726428.273014) can0 1811F583#1C000E6F0E8B0E57
(1605726428.274020) can0 1811F583#1F000E6C0E460E60
(1605726428.275041) can0 1811F583#22000E5A0E570E98
(1605726428.276074) can0 1811F583#25000E4E0E5B0E63
(1605726428.277075) can0 1811F583#28000E860E6C0E7C
(1605726428.278066) can0 1811F583#2B000E5A0E400E7B
(1605726428.279039) can0 1811F583#2E000E490E8E0E69
(1605726428.280014) can0 1812F583#0100424442414243
(1605726428.281023) can0 1812F583#0700424141424140
(1605726428.281776) can0 1813F583#
(1605726428.283079) can0 1815F583#0001000000000000
(1605726428.283974) can0 1816F583#00118111000000
(1605726428.284963) can0 1816F583#00129111000000
(1605726428.285990) can0 1816F583#0013A111000000
(1605726428.286694) can0 1814F583#
(1605726428.287717) can0 1833F583#
(1605726428.288715) can0 1833F583#
(1605726428.294995) can0 1841F582#00000000
(1605726428.297150) can0 183BF4E8#1001000000000000
(1605726428.299161) can0 183DF4E8#0411811100000000
(1605726428.301130) can0 183DF4E8#0412911100000000
(1605726428.303133) can0 183DF4E8#0413A11100000000
(1605726428.307968) can0 1841F583#00000000
(1605726428.367470) can0 1830E8F4#0800000000000000
(1605726428.373149) can0 1838F4E8#0000000000FFFFFF
(1605726428.464025) can0 1830E8F4#0800000000000000
(1605726428.469163) can0 1838F4E8#0000000000FFFFFF
(1605726428.617895) can0 181080F5#FFFF0E663E9DFFFF
(1605726428.619160) can0 183280F5#0100000000000000
(1605726428.621120) can0 183280F5#0200000000000000
(1605726428.623116) can0 184080F5#0100000000000000
(1605726428.637108) can0 181081F5#FFFF0E663E9DFFFF
(1605726428.638865) can0 1811F580#01000E380E7B0E8D
(1605726428.639477) can0 183281F5#0100000000000000
(1605726428.639996) can0 1811F580#04000E720E530E24
(1605726428.640944) can0 1811F580#07000E680E550EA7
(1605726428.641432) can0 183281F5#0200000000000000
(1605726428.642007) can0 1811F580#0A000E690E5B0E68
(1605726428.642912) can0 1811F580#0D000E6F0E860E74
(1605726428.643455) can0 184081F5#0100000000000000
(1605726428.644001) can0 1811F580#10000E6A0E750E69
(1605726428.644863) can0 1811F580#13000E540E9E0E58
(1605726428.645849) can0 1811F580#16000E750E700E86
(1605726428.646900) can0 1811F580#19000E840E770E5C
(1605726428.647926) can0 1811F580#1C000E800E850E52
(1605726428.648892) can0 1811F580#1F000E870E640E44
(1605726428.649910) can0 1811F580#22000E480E940E6F
(1605726428.650931) can0 1811F580#25000E590E4E0E93
(1605726428.651978) can0 1811F580#28000E6B0E5D0E59
(1605726428.652864) can0 1811F580#2B000E710E500E58
(1605726428.653876) can0 1811F580#2E000E600E400E66
(1605726428.654902) can0 1812F580#0100424242404243
(1605726428.655873) can0 1812F580#0700434242444342
(1605726428.656627) can0 1813F580#
(1605726428.657892) can0 1815F580#0001000000000000
(1605726428.658854) can0 1816F580#00118111000000
(1605726428.659834) can0 1816F580#00129111000000
(1605726428.660889) can0 1816F580#0013A111000000
(1605726428.661631) can0 1814F580#
(1605726428.662643) can0 1833F580#
(1605726428.667228) can0 183BF4E8#0401000000000000
(1605726428.669102) can0 183DF4E8#0111811100000000
(1605726428.671104) can0 183DF4E8#0112911100000000
(1605726428.673120) can0 183DF4E8#0113A11100000000
(1605726428.675150) can0 181082F5#FFFF0E663E9DFFFF
(1605726428.677128) can0 183282F5#0100000000000000
(1605726428.677695) can0 1833F580#
(1605726428.679126) can0 183282F5#0200000000000000
(1605726428.681111) can0 184082F5#0100000000000000
(1605726428.683741) can0 1841F580#00000000
(1605726428.692516) can0 1811F581#01000E620E750E6D
(1605726428.693490) can0 1811F581#04000E5B0E540E50
(1605726428.694502) can0 1811F581#07000E710E830E58
(1605726428.695505) can0 1811F581#0A000E7A0E420E4C
(1605726428.696503) can0 1811F581#0D000E380E320E65
(1605726428.697124) can0 181083F5#FFFF0E663E9DFFFF
(1605726428.697664) can0 1811F581#10000E9F0E3D0E4B
(1605726428.698547) can0 1811F581#13000E6B0E790E6A
(1605726428.699204) can0 183283F5#0100000000000000
(1605726428.699827) can0 1811F581#16000E720E520E79
(1605726428.700494) can0 1811F581#19000E4D0E6C0E5F
(1605726428.701095) can0 183283F5#0200000000000000
(1605726428.701548) can0 1811F581#1C000E7B
(1605726428.702520) can0 1812F581#0100424343424343
(1605726428.703143) can0 184083F5#0100000000000000
(1605726428.703473) can0 1812F581#070042
(1605726428.704262) can0 1813F581#
(1605726428.705536) can0 1815F581#0001000000000000
(1605726428.706109) can0 1811F583#01000E730E780E62
(1605726428.706605) can0 1816F581#00118111000000
(1605726428.707189) can0 1811F583#04000E600E610E76
(1605726428.707715) can0 1816F581#0012910D000000
(1605726428.708312) can0 1811F583#07000E650E520E85
(1605726428.708768) can0 1816F581#00138000000000
(1605726428.709314) can0 1811F583#0A000E5B0E750E94
(1605726428.709630) can0 1814F581#
(1605726428.710174) can0 1811F583#0D000E7D0E470E94
(1605726428.711020) can0 1811F583#10000E760E630E63
(1605726428.712007) can0 1811F583#13000E890E800E4D
(1605726428.712992) can0 1811F583#16000E850E6B0E71
(1605726428.714024) can0 1811F583#19000E890E760E67
(1605726428.715039) can0 1811F583#1C000E6F0E8B0E57
(1605726428.715611) can0 183BF4E8#0801000000000000
(1605726428.716112) can0 1811F583#1F000E6C0E460E61
(1605726428.717046) can0 1811F583#22000E5A0E570E98
(1605726428.717578) can0 183DF4E8#0211811100000062
(1605726428.718117) can0 1811F583#25000E4E0E5B0E63
(1605726428.719079) can0 1811F583#28000E860E6C0E7C
(1605726428.719577) can0 183DF4E8#0212910D00000076
(1605726428.720115) can0 1811F583#2B000E5A0E400E7B
(1605726428.721026) can0 1811F583#2E000E490E8E0E69
(1605726428.721576) can0 183DF4E8#0213800000000085
(1605726428.722263) can0 1812F583#0100424442414243
(1605726428.723055) can0 1812F583#0700424141424140
(1605726428.723726) can0 1813F583#
(1605726428.725049) can0 1815F583#0001000000000000
(1605726428.726015) can0 1816F583#00118111000000
(1605726428.727042) can0 1816F583#00129111000000
(1605726428.728006) can0 1816F583#0013A111000000
(1605726428.728577) can0 1811F582#01000E770E520E73
(1605726428.728906) can0 1814F583#
(1605726428.729365) can0 1811F582#04000E760E870E6E
(1605726428.729983) can0 183BF4E8#1001000000000000
(1605726428.730541) can0 1811F582#07000E5D0E650E54
(1605726428.730932) can0 1833F583#
(1605726428.731268) can0 1811F582#0A000E5E0E670E59
(1605726428.732049) can0 183DF4E8#0411811100000000
(1605726428.732477) can0 1811F582#0D000E500E790E56
(1605726428.733149) can0 183DF4E8#0412911100000000
(1605726428.733671) can0 1811F582#10000E600E2C0E2C
(1605726428.734192) can0 1811F582#13000E6F0E530E74
(1605726428.735089) can0 183DF4E8#0413A11100000000
(1605726428.735634) can0 1811F582#16000E6A0E570E4F
(1605726428.736264) can0 1811F582#19000E3A0E520E6B
(1605726428.736996) can0 1811F582#1C000E51
(1605726428.738131) can0 1812F582#0100434342434543
(1605726428.739007) can0 1812F582#070042
(1605726428.739870) can0 1813F582#
(1605726428.741168) can0 1815F582#0001000000000000
(1605726428.742110) can0 1816F582#00118111000000
(1605726428.743135) can0 1816F582#0012910D000000
(1605726428.743710) can0 1833F583#
(1605726428.744248) can0 1816F582#00138000000000
(1605726428.744941) can0 1814F582#
(1605726428.745880) can0 1833F582#
(1605726428.746906) can0 1833F582#
(1605726428.747972) can0 1841F582#00000000
(1605726428.749116) can0 183ECCE8#4139E9391A444540
(1605726428.749882) can0 1841F583#00000000
(1605726428.751088) can0 183FCCE8#0450002015E33E9D
(1605726428.753082) can0 1840CCE8#3EDABB483E943EA8
(1605726428.755166) can0 183BF4E8#0C01000000000000
(1605726428.757205) can0 183DF4E8#0311811100000000
(1605726428.759105) can0 183DF4E8#0312910D00000000
(1605726428.761144) can0 183DF4E8#0313800000000000
(1605726428.768235) can0 1833F581#
(1605726428.773243) can0 1833F581#
(1605726428.779372) can0 1841F581#00000000
(1605726428.873781) can0 1830E8F4#0800000000000000
(1605726428.880463) can0 1830E8F4#0800000000000000
(1605726428.895111) can0 1838F4E8#0000000000FFFFFF
(1605726428.897114) can0 1838F4E8#0000000000FFFFFF
(1605726428.971344) can0 1830E8F4#0800000000000000
(1605726428.973109) can0 1838F4E8#0000000000FFFFFF
(1605726429.117080) can0 181080F5#FFFF0E663E9DFFFF
(1605726429.118893) can0 1811F580#01000E390E7B0E8D
